date Thu Aug 18 16:35:00 2011
base hex timestamps absolute
no internal events logged
 263.0054 2  663             Rx   d 8 F0 10 0A 31 01 0F 0B 10
 263.0055 3  19F             Rx   d 6 F0 FC F2 7F 00 20
 263.0057 2  6F0             Rx   d 4 63 30 00 02
 263.0059 3  F3              Rx   d 8 56 EB 04 C0 F0 FF FF FF
 263.0061 2  1A6             Rx   d 8 00 00 00 00 00 00 B0 FA
 263.0061 3  D9              Rx   d 8 98 1B 00 10 00 E0 7F C0
 263.0063 3  DC              Rx   d 6 DD 1B 22 D0 07 FE
 263.0064 2  D9              Rx   d 8 98 1B 00 10 00 E0 7F C0
 263.0084 1  2BF             Rx   d 3 FF FF FF
 263.0086 2  663             Rx   d 7 F0 21 00 03 22 3F 09
 263.0092 3  EF              Rx   d 8 35 FA FE 7C 21 00 7D FF
 263.0096 2  1C4             Rx   d 7 00 00 00 00 AF 20 F2
 263.0096 3  1A1             Rx   d 5 FC C6 00 00 81
 263.0097 2  1A1             Rx   d 5 FC C6 00 00 81
 263.0100 2  1C5             Rx   d 7 00 00 00 00 AF 20 F2
 263.0105 3  254             Rx   d 8 FF 7F FF 7F FF 7F FF 7F
 263.0107 3  137             Rx   d 2 FD BD
 263.0110 3  8F              Rx   d 8 D4 13 FA 7C 52 00 15 10
 263.0121 2  1BA             Rx   d 8 09 00 00 44 2F F3 72 F0
 263.0121 3  96              Rx   d 8 51 00 36 C7 01 FF FF FF
 263.0123 2  1A5             Rx   d 5 CE F8 E3 21 A4
 263.0125 2  96              Rx   d 8 51 00 36 C7 01 FF FF FF
 263.0130 1  1BA             Rx   d 8 09 00 00 44 2F F3 72 F0
 263.0141 2  E4              Rx   d 8 EE FD 9B FF F2 8E FF F2
 263.0159 2  130             Rx   d 5 05 F0 FC FF FF
 263.0170 3  2A7             Rx   d 5 8E F9 FE FF 14
 263.0193 3  18D             Rx   d 7 FC 47 0A FE 07 00 7E
 263.0205 2  302             Rx   d 7 FF FE AB 7E F1 FF FF
 263.0205 3  302             Rx   d 7 D2 FE AB 7E F1 FF FF
 263.0207 3  137             Rx   d 2 FD BD
 263.0209 3  A5              Rx   d 8 9D FC FA B7 7F 34 0C F1
 263.0213 2  A5              Rx   d 8 9D FC FA B7 7F 34 0C F1
 263.0242 2  E4              Rx   d 8 09 FE 9B FF F2 8E FF F2
 263.0248 3  F3              Rx   d 8 D8 EC 04 C0 F0 FF FF FF
 263.0248 2  199             Rx   d 6 FF FE 59 7F FF AF
 263.0250 2  19A             Rx   d 6 FF FE 6E 7E FF 2F
 263.0250 3  D9              Rx   d 8 16 1C 00 10 00 E0 7F C0
 263.0252 2  19F             Rx   d 6 FF FE 02 80 00 20
 263.0252 3  199             Rx   d 6 8A FE 59 7F 1D A0
 263.0254 3  DC              Rx   d 6 D6 1C 22 D0 07 FE
 263.0255 2  D9              Rx   d 8 16 1C 00 10 00 E0 7F C0
 263.0256 3  19A             Rx   d 6 8D FE 6E 7E 00 20
 263.0258 3  19F             Rx   d 6 E4 FE 02 80 00 20
 263.0288 2  6F0             Rx   d 8 63 10 CE 71 01 0F 0B 10
 263.0292 3  EF              Rx   d 8 4D FB 00 7D 21 00 7D FF
 263.0293 2  663             Rx   d 4 F0 30 00 02
 263.0295 2  1C4             Rx   d 7 00 00 00 00 AF 20 F2
 263.0296 3  1A1             Rx   d 5 61 C7 00 00 81
 263.0297 2  1A1             Rx   d 5 61 C7 00 00 81
 263.0299 2  1C5             Rx   d 7 00 00 00 00 AF 20 F2
 263.0301 2  6F0             Rx   d 8 63 21 00 C7 62 3F 09 00
 263.0305 3  254             Rx   d 8 FF 7F FF 7F FF 7F FF 7F
 263.0308 3  137             Rx   d 2 FD BC
 263.0317 3  197             Rx   d 4 05 03 0E C0
 263.0321 2  6F0             Rx   d 8 63 22 AC 01 14 00 01 01
 263.0342 2  6F0             Rx   d 8 63 23 34 11 01 00 9B 04
 263.0344 2  E4              Rx   d 8 08 F0 9B FF F2 8E FF F2
 263.0359 1  2C4             Rx   d 8 D1 07 FF 64 72 64 01 F1
 263.0363 2  6F0             Rx   d 8 63 24 01 04 3E 01 01 04
 263.0384 2  6F0             Rx   d 8 63 25 3F 81 01 00 14 17
 263.0386 2  5E3             Rx   d 8 01 02 3A FF FF FF FF FF
 263.0391 3  5E3             Rx   d 8 01 02 3A FF FF FF FF FF
 263.0394 3  18D             Rx   d 7 FC 47 0A FF 07 00 7E
 263.0401 1  5E3             Rx   d 8 01 02 3A FF FF FF FF FF
 263.0405 2  6F0             Rx   d 8 63 26 01 06 FD 13 01 02
 263.0407 3  23A             Rx   d 5 22 F3 00 3F FF
 263.0407 2  302             Rx   d 7 FF F1 AB 7E F1 FF FF
 263.0410 3  A5              Rx   d 8 22 FD FB C7 7F 2C 0C F1
 263.0411 2  23A             Rx   d 5 22 F3 00 3F FF
 263.0412 3  8F              Rx   d 8 5A 14 FA 7C 52 00 15 10
 263.0413 2  A5              Rx   d 8 22 FD FB C7 7F 2C 0C F1
 263.0413 3  137             Rx   d 2 FD BC
 263.0418 1  23A             Rx   d 5 22 F3 00 3F FF
 263.0426 2  6F0             Rx   d 8 63 27 14 0C 01 00 B9 07
 263.0429 3  96              Rx   d 8 51 00 36 C7 01 FF FF FF
 263.0430 3  314             Rx   d 3 FF 3F FF
 263.0432 2  96              Rx   d 8 51 00 36 C7 01 FF FF FF
 263.0440 1  314             Rx   d 3 FF 3F FF
 263.0442 2  E4              Rx   d 8 55 F1 9B FF F2 8E FF F2
 263.0444 3  12F             Rx   d 8 AC 72 8A DD F1 05 30 86
 263.0445 2  257             Rx   d 8 CF 0E FF FF FF FF FF FF
 263.0447 2  6F0             Rx   d 8 63 28 01 00 A7 0D 01 01
 263.0452 2  199             Rx   d 6 FF F1 75 7F FF AF
 263.0452 3  199             Rx   d 6 6E F1 75 7F 1D A0
 263.0454 2  19A             Rx   d 6 FF F1 82 7E FF 2F
 263.0455 3  D9              Rx   d 8 4B 1D 00 10 00 E0 7F C0
 263.0456 2  19F             Rx   d 6 FF F1 FE 7F 00 20
 263.0457 3  F3              Rx   d 8 85 ED 04 C0 F0 FF FF FF
 263.0459 3  DC              Rx   d 6 BC 1D 22 D0 07 FE
 263.0460 2  D9              Rx   d 8 4B 1D 00 10 00 E0 7F C0
 263.0461 3  19A             Rx   d 6 C8 F1 82 7E 00 20
 263.0462 2  12F             Rx   d 8 98 77 8A DD F1 05 30 86
 263.0463 3  19F             Rx   d 6 8A F1 FE 7F 00 20
 263.0469 2  6F0             Rx   d 8 63 29 86 0B 01 00 9A 80
 263.0470 1  12F             Rx   d 8 98 77 8A DD F1 05 30 86
 263.0472 3  2C5             Rx   d 7 F3 FB 00 30 C6 70 C8
 263.0491 2  6F0             Rx   d 8 63 2A 01 00 04 FF 01 04
 263.0492 3  EF              Rx   d 8 C3 FC 00 7D 21 00 7D FF
 263.0495 2  1C4             Rx   d 7 00 00 00 00 AF 20 F2
 263.0496 3  1A1             Rx   d 5 09 C8 00 00 81
 263.0497 2  1A1             Rx   d 5 09 C8 00 00 81
 263.0499 2  1C5             Rx   d 7 00 00 00 00 AF 20 F2
 263.0505 3  254             Rx   d 8 FF 7F FF 7F FF 7F FF 7F
 263.0507 3  137             Rx   d 2 FD BC
 263.0512 2  6F0             Rx   d 8 63 2B 57 02 01 01 88 05
 263.0518 3  34F             Rx   d 2 FD FF
 263.0534 2  6F0             Rx   d 8 63 2C 01 05 0F 09 2E 00
 263.0539 3  2C4             Rx   d 8 EA 07 FF 64 72 64 01 F1
 263.0540 3  281             Rx   d 2 31 F3
 263.0542 2  E4              Rx   d 8 B2 F2 9B FF F2 8E FF F2
 263.0555 1  281             Rx   d 2 31 F3
 263.0558 2  6F0             Rx   d 8 63 2D E3 04 62 02 2E 00
 263.0579 2  6F0             Rx   d 8 63 2E 0F 04 7A 05 7E 04
 263.0593 3  18D             Rx   d 7 FC 47 0A FF 07 00 7E
 263.0601 2  6F0             Rx   d 8 63 2F 74 00 15 00 16 00
 263.0605 2  163             Rx   d 8 FF FF E5 24 FF FF FF FF
 263.0605 3  163             Rx   d 8 83 F3 E5 24 E4 24 00 F0
 263.0607 2  302             Rx   d 7 FF F3 AB 7E F1 FF FF
 263.0607 3  302             Rx   d 7 9B F3 AB 7E F1 FF FF
 263.0610 3  A5              Rx   d 8 0A FE FC C7 7F 2C 0C F1
 263.0611 3  137             Rx   d 2 FD BC
 263.0613 2  A5              Rx   d 8 0A FE FC C7 7F 2C 0C F1
 263.0614 1  302             Rx   d 7 FF FF AB 7E FF FF FF
 263.0617 3  197             Rx   d 4 8F 04 0E C0
 263.0621 2  1BA             Rx   d 8 08 00 00 44 2F F3 72 F0
 263.0623 2  6F0             Rx   d 8 63 20 1C 00 22 00 23 00
 263.0631 1  1BA             Rx   d 8 08 00 00 44 2F F3 72 F0
 263.0642 2  E4              Rx   d 8 EF F3 9B FF F2 8E FF F2
 263.0644 2  6F0             Rx   d 8 63 21 24 00 25 00 26 00
 263.0647 3  351             Rx   d 5 00 05 4F 4C F0
 263.0649 3  F3              Rx   d 8 62 EE 04 C0 F0 FF FF FF
 263.0651 2  199             Rx   d 6 FF F3 6B 7F FF AF
 263.0652 3  D9              Rx   d 8 AC 1E 00 10 00 E0 7F C0
 263.0653 2  19A             Rx   d 6 FF F3 60 7E FF 2F
 263.0654 3  199             Rx   d 6 6A F3 6B 7F 1D A0
 263.0655 2  19F             Rx   d 6 FF F3 05 80 00 20
 263.0656 3  DC              Rx   d 6 02 1E 22 D0 07 FE
 263.0658 3  19A             Rx   d 6 D0 F3 60 7E 00 20
 263.0658 2  D9              Rx   d 8 AC 1E 00 10 00 E0 7F C0
 263.0660 3  19F             Rx   d 6 B8 F3 05 80 00 20
 263.0660 2  301             Rx   d 7 27 F3 D6 7E FF 7F 22
 263.0661 1  19A             Rx   d 6 D0 F3 60 7E 00 20
 263.0662 2  351             Rx   d 5 00 05 4F 4C F0
 263.0662 3  301             Rx   d 7 27 F3 D6 7E FF 7F 22
 263.0663 3  397             Rx   d 3 D2 D8 4A
 263.0664 2  6F0             Rx   d 8 63 22 2D 00 C0 00 33 00
 263.0671 1  19F             Rx   d 6 B8 F3 05 80 00 20
 263.0685 2  6F0             Rx   d 8 63 23 35 00 36 04 7E 02
 263.0692 3  EF              Rx   d 8 9E FD 00 7D 21 00 7D FF
 263.0694 2  1C4             Rx   d 7 00 00 00 00 AF 20 F2
 263.0695 3  1A1             Rx   d 5 94 C9 00 00 81
 263.0696 2  1A1             Rx   d 5 94 C9 00 00 81
 263.0698 2  1C5             Rx   d 7 00 00 00 00 AF 20 F2
 263.0704 3  254             Rx   d 8 FF 7F FF 7F FF 7F FF 7F
 263.0706 2  6F0             Rx   d 8 63 24 41 05 3F 04 A9 00
 263.0708 3  137             Rx   d 2 FD BC
 263.0711 1  1A1             Rx   d 5 94 C9 00 00 81
 263.0713 3  8F              Rx   d 8 07 15 FA 7C 52 00 15 10
 263.0718 3  96              Rx   d 8 51 00 36 C7 01 FF FF FF
 263.0721 2  96              Rx   d 8 51 00 36 C7 01 FF FF FF
 263.0725 1  F6              Rx   d 2 F3 F3
 263.0727 2  6F0             Rx   d 8 63 25 3B 00 3C 00 3F 00
 263.0739 3  D7              Rx   d 2 31 FF
 263.0741 2  E4              Rx   d 8 61 F4 9B FF F2 8E FF F2
 263.0743 3  1F6             Rx   d 2 80 F0
 263.0748 2  6F0             Rx   d 8 63 26 42 00 45 00 C1 00
 263.0750 2  22A             Rx   d 3 00 C0 F0
 263.0751 2  1F6             Rx   d 2 80 F0
 263.0756 1  1F6             Rx   d 2 80 F0
 263.0758 3  3FD             Rx   d 5 E4 0E 20 FC FF
 263.0760 2  2BB             Rx   d 5 D5 FB 00 00 F2
 263.0761 3  2BB             Rx   d 5 D5 FB 00 00 F2
 263.0763 3  289             Rx   d 8 04 FB E0 E0 E1 00 EC 01
 263.0763 1  22A             Rx   d 3 00 C0 F0
 263.0769 2  6F0             Rx   d 8 63 27 5C 00 5E 00 65 00
 263.0772 1  2BB             Rx   d 5 D5 FB 00 00 F2
 263.0791 2  6F0             Rx   d 8 63 28 ED 01 97 06 F1 04
 263.0794 3  18D             Rx   d 7 FC 47 0A FE 07 00 7E
 263.0804 2  302             Rx   d 7 FF F5 AB 7E F1 FF FF
 263.0807 3  137             Rx   d 2 FD BC
 263.0810 3  A5              Rx   d 8 A9 F0 FC B7 7F 30 0C F1
 263.0812 3  2E0             Rx   d 6 AB FB 46 30 24 FF
 263.0812 2  6F0             Rx   d 8 63 29 AA 04 AC 00 83 05
 263.0814 2  A5              Rx   d 8 A9 F0 FC B7 7F 30 0C F1
 263.0816 2  1A0             Rx   d 8 00 80 0A 50 FF 01 F0 FF
 263.0821 1  5ED             Rx   d 8 6E 16 00 FC FF FF FF FF
 263.0822 3  202             Rx   d 2 FD FF
 263.0824 3  346             Rx   d 4 BB F5 70 FF
 263.0825 2  202             Rx   d 2 FD FF
 263.0827 3  5ED             Rx   d 8 6E 16 00 FC FF FF FF FF
 263.0833 2  6F0             Rx   d 8 63 2A 4D 04 CC 04 0A 04
 263.0834 1  A5              Rx   d 8 A9 F0 FC B7 7F 30 0C F1
 263.0840 1  202             Rx   d 2 FD FF
 263.0842 2  E4              Rx   d 8 3C F5 9B FF F2 8E FF F2
 263.0849 2  377             Rx   d 3 F8 FB 20
 263.0850 3  F3              Rx   d 8 63 E0 04 C0 F0 FF FF FF
 263.0851 2  199             Rx   d 6 FF F5 84 7F FF AF
 263.0853 2  19A             Rx   d 6 FF F5 83 7E FF 2F
 263.0853 3  D9              Rx   d 8 AD 10 00 10 00 E0 7F C0
 263.0855 3  DC              Rx   d 6 14 10 22 D0 07 FE
 263.0855 2  19F             Rx   d 6 FF F5 FA 7F 00 20
 263.0857 3  199             Rx   d 6 88 F5 84 7F 1D A0
 263.0857 2  D9              Rx   d 8 AD 10 00 10 00 E0 7F C0
 263.0858 1  377             Rx   d 3 F8 FB 20
 263.0859 3  19A             Rx   d 6 E0 F5 83 7E 00 20
 263.0860 2  5F2             Rx   d 8 6E 02 00 FC 00 00 00 00
 263.0861 3  19F             Rx   d 6 71 F5 FA 7F 00 20
 263.0862 2  6F0             Rx   d 8 63 2B B0 01 2B 01 7D 04
 263.0863 3  5F2             Rx   d 8 6E 02 00 FC 00 00 00 00
 263.0872 3  1B3             Rx   d 8 FF 0F 00 FB 04 FF 80 44
 263.0876 2  1B3             Rx   d 8 FF 0F 00 FB 04 FF 80 44
 263.0888 2  6F0             Rx   d 8 63 2C 8E 0F 01 00 05 03
 263.0892 3  EF              Rx   d 8 79 FE 00 7D 21 00 7D FF
 263.0895 2  1C4             Rx   d 7 00 00 00 00 B0 20 F2
 263.0895 3  1A1             Rx   d 5 2E CA 00 00 81
 263.0896 2  1A1             Rx   d 5 2E CA 00 00 81
 263.0899 2  1C5             Rx   d 7 00 00 00 00 B0 20 F2
 263.0904 2  173             Rx   d 8 C0 FD 00 02 20 00 F2 C0
 263.0904 3  173             Rx   d 8 C0 FD 00 02 20 00 F2 C0
 263.0907 3  254             Rx   d 8 FF 7F FF 7F FF 7F FF 7F
 263.0908 3  137             Rx   d 2 FD BC
 263.0909 2  6F0             Rx   d 8 63 2D 01 00 67 06 01 00
 263.0911 2  30A             Rx   d 2 FC FF
 263.0913 2  18A             Rx   d 7 98 F5 00 00 00 7F F7
 263.0917 1  387             Rx   d 2 FC FF
 263.0917 3  197             Rx   d 4 00 05 0E C0
 263.0918 3  343             Rx   d 2 34 FF
 263.0923 3  31E             Rx   d 2 34 FF
 263.0926 1  232             Rx   d 3 00 C0 F0
 263.0928 2  232             Rx   d 3 00 C0 F0
 263.0931 2  6F0             Rx   d 8 63 2E 74 0A 01 00 99 00
 263.0932 1  231             Rx   d 2 FC FF
 263.0942 2  E4              Rx   d 8 DB F6 9B FF F2 8E FF F2
 263.0944 2  257             Rx   d 8 CE 00 FF FF FF FF FF FF
 263.0952 2  6F0             Rx   d 8 63 2F 14 CB 41 0D 90 EA
 263.0970 3  2A7             Rx   d 5 34 FA FE FF 14
 263.0973 2  6F0             Rx   d 8 63 20 84 B7 EB 6F 1E AB
 263.0993 3  18D             Rx   d 7 FC 47 0A FF 07 00 7E
 263.0994 2  6F0             Rx   d 8 63 21 96 06 B2 03 AF C8
 263.1004 2  302             Rx   d 7 FF F7 AB 7E F1 FF FF
 263.1004 3  302             Rx   d 7 9E F7 AB 7E F1 FF FF
 263.1007 3  137             Rx   d 2 FD BC
 263.1009 3  A5              Rx   d 8 99 F1 FB C7 7F 2C 0C F1
 263.1012 3  8F              Rx   d 8 E0 16 FA 7C 52 00 15 10
 263.1013 2  A5              Rx   d 8 99 F1 FB C7 7F 2C 0C F1
 263.1015 2  6F0             Rx   d 8 63 22 3F 99 3A FF FF FF
 263.1018 3  96              Rx   d 8 51 00 36 C7 01 FF FF FF
 263.1020 3  2FC             Rx   d 7 81 01 00 FF FF FF FF
 263.1022 3  347             Rx   d 3 FF F5 70
 263.1022 2  96              Rx   d 8 51 00 36 C7 01 FF FF FF
 263.1024 3  189             Rx   d 6 47 F5 00 00 00 22
 263.1025 2  2FC             Rx   d 7 81 01 00 FF FF FF FF
 263.1035 1  2FC             Rx   d 7 81 01 00 FF FF FF FF
 263.1042 2  E4              Rx   d 8 86 F7 9B FF F2 8E FF F2
 263.1048 2  199             Rx   d 6 FF F7 6A 7F FF AF
 263.1049 3  F3              Rx   d 8 3E E1 04 C0 F0 FF FF FF
 263.1050 2  19A             Rx   d 6 FF F7 5F 7E FF 2F
 263.1051 3  D9              Rx   d 8 F0 11 00 10 00 E0 7F C0
 263.1052 2  19F             Rx   d 6 FF F7 ED 7F 00 20
 263.1053 3  199             Rx   d 6 42 F7 6A 7F 1D A0
 263.1055 2  D9              Rx   d 8 F0 11 00 10 00 E0 7F C0
 263.1055 3  DC              Rx   d 6 7E 11 22 D0 07 FE
 263.1057 3  19A             Rx   d 6 62 F7 5F 7E 00 20
 263.1059 3  19F             Rx   d 6 74 F7 ED 7F 00 20
 263.1061 2  1A6             Rx   d 8 00 00 00 00 00 00 40 FC
 263.1062 3  581             Rx   d 8 40 4D 00 29 FF FF FF FF
 263.1083 1  2BF             Rx   d 3 FF FF FF
 263.1092 3  EF              Rx   d 8 78 F0 00 7D 21 00 7D FF
 263.1094 2  1C4             Rx   d 7 00 00 00 00 B0 20 F2
 263.1095 3  1A1             Rx   d 5 B3 CB 00 00 81
 263.1096 2  1A1             Rx   d 5 B3 CB 00 00 81
 263.1098 2  1C5             Rx   d 7 00 00 00 00 B0 20 F2
 263.1104 3  254             Rx   d 8 FF 7F FF 7F FF 7F FF 7F
 263.1108 3  137             Rx   d 2 FD BC
 263.1121 2  1BA             Rx   d 8 09 00 00 44 2F F3 72 F0
 263.1123 2  369             Rx   d 5 90 F5 A2 A0 A0
 263.1130 1  1BA             Rx   d 8 09 00 00 44 2F F3 72 F0
 263.1141 2  E4              Rx   d 8 DA F8 9B FF F2 8E FF F2
 263.1144 3  1E1             Rx   d 6 54 FE 01 FF FF FF
 263.1159 2  130             Rx   d 5 05 F0 FC FF FF
 263.1193 3  18D             Rx   d 7 FB 47 0A FD 07 00 7E
 263.1204 2  302             Rx   d 7 FF F9 AB 7E F1 FF FF
 263.1207 3  137             Rx   d 2 FD BC
 263.1209 3  A5              Rx   d 8 59 F2 FC D7 7F 28 0C F1
 263.1213 2  A5              Rx   d 8 59 F2 FC D7 7F 28 0C F1
 263.1217 3  197             Rx   d 4 8C 06 0E C0
 263.1241 2  E4              Rx   d 8 87 F9 9B FF F2 8E FF F2
 263.1248 2  199             Rx   d 6 FF F9 8D 7F FF AF
 263.1250 3  F3              Rx   d 8 D9 E2 04 C0 F0 FF FF FF
 263.1250 2  19A             Rx   d 6 FF F9 7C 7E FF 2F
 263.1252 3  D9              Rx   d 8 17 12 00 10 00 E0 7F C0
 263.1252 2  19F             Rx   d 6 FF F9 E6 7F 00 20
 263.1254 3  199             Rx   d 6 4B F9 8D 7F 1D A0
 263.1255 2  D9              Rx   d 8 17 12 00 10 00 E0 7F C0
 263.1256 3  DC              Rx   d 6 C0 12 22 D0 07 FE
 263.1258 3  19A             Rx   d 6 84 F9 7C 7E 00 20
 263.1260 3  19F             Rx   d 6 44 F9 E6 7F 00 20
 263.1262 3  5E0             Rx   d 8 8C 01 00 4C 00 18 00 FF
 263.1275 1  5E0             Rx   d 8 8C 01 00 4C 00 18 00 FF
 263.1292 3  EF              Rx   d 8 25 F1 00 7D 21 00 7D FF
 263.1294 2  1C4             Rx   d 7 00 00 00 00 B0 20 F2
 263.1295 3  1A1             Rx   d 5 47 CC 00 00 81
 263.1296 2  1A1             Rx   d 5 47 CC 00 00 81
 263.1298 2  1C5             Rx   d 7 00 00 00 00 B0 20 F2
 263.1304 3  254             Rx   d 8 FF 7F FF 7F FF 7F FF 7F
 263.1307 3  137             Rx   d 2 FD BC
 263.1310 3  8F              Rx   d 8 BD 17 FA 7C 52 00 15 10
 263.1317 3  96              Rx   d 8 51 00 36 C7 01 FF FF FF
 263.1321 2  96              Rx   d 8 51 00 36 C7 01 FF FF FF
 263.1341 2  E4              Rx   d 8 60 FA 9B FF F2 8E FF F2
 263.1347 3  19B             Rx   d 8 14 45 40 55 FD FF FF FF
 263.1351 2  19B             Rx   d 8 14 45 40 55 FD FF FF FF
 263.1370 3  36E             Rx   d 5 07 F5 FE FF 15
 263.1372 3  C0              Rx   d 2 F5 FF
 263.1393 3  18D             Rx   d 7 FB 47 0A FF 07 00 7E
 263.1403 2  302             Rx   d 7 FF FB AB 7E F1 FF FF
 263.1404 3  302             Rx   d 7 91 FB AB 7E F1 FF FF
 263.1407 3  137             Rx   d 2 FD BC
 263.1410 3  A5              Rx   d 8 42 F3 FD D7 7F 28 0C F1
 263.1413 2  A5              Rx   d 8 42 F3 FD D7 7F 28 0C F1
 263.1442 2  E4              Rx   d 8 3D FB 9B FF F2 8E FF F2
 263.1444 2  257             Rx   d 8 93 01 FF FF FF FF FF FF
 263.1444 3  12F             Rx   d 8 F1 73 8A DD F1 05 30 86
 263.1450 3  F3              Rx   d 8 84 E3 04 C0 F0 FF FF FF
 263.1452 2  199             Rx   d 6 FF FB 5F 7F FF AF
 263.1452 3  D9              Rx   d 8 4A 13 00 10 00 E0 7F C0
 263.1454 2  19A             Rx   d 6 FF FB 63 7E FF 2F
 263.1454 3  199             Rx   d 6 3C FB 5F 7F 1D A0
 263.1456 2  19F             Rx   d 6 FF FB 04 80 00 20
 263.1456 3  DC              Rx   d 6 AA 13 22 D0 07 FE
 263.1458 2  D9              Rx   d 8 4A 13 00 10 00 E0 7F C0
 263.1458 3  19A             Rx   d 6 1D FB 63 7E 00 20
 263.1460 3  19F             Rx   d 6 52 FB 04 80 00 20
 263.1461 2  12F             Rx   d 8 C4 78 8A DD F1 05 30 86
 263.1462 3  397             Rx   d 3 D2 D8 4B
 263.1470 1  12F             Rx   d 8 C4 78 8A DD F1 05 30 86
 263.1472 3  2C5             Rx   d 7 3C FC 00 30 C6 70 C8
 263.1492 3  EF              Rx   d 8 C2 F2 00 7D 21 00 7D FF
 263.1494 2  1C4             Rx   d 7 00 00 00 00 B0 20 F2
 263.1495 3  1A1             Rx   d 5 DA CD 00 00 81
 263.1496 2  1A1             Rx   d 5 DA CD 00 00 81
 263.1498 2  1C5             Rx   d 7 00 00 00 00 B0 20 F2
 263.1504 3  254             Rx   d 8 FF 7F FF 7F FF 7F FF 7F
 263.1508 3  137             Rx   d 2 FD BC
 263.1517 3  197             Rx   d 4 03 07 0E C0
 263.1541 2  E4              Rx   d 8 B3 FC 9B FF F2 8E FF F2
 263.1550 3  2C4             Rx   d 8 03 08 FF 64 72 64 01 F1
 263.1551 3  281             Rx   d 2 2F F3
 263.1558 1  281             Rx   d 2 2F F3
 263.1593 3  18D             Rx   d 7 FB 47 0A FF 07 00 7E
 263.1604 2  163             Rx   d 8 FF FF E5 24 FF FF FF FF
 263.1604 3  163             Rx   d 8 82 FD E5 24 E4 24 00 F0
 263.1606 2  302             Rx   d 7 FF FD AB 7E F1 FF FF
 263.1607 3  137             Rx   d 2 FD BC
 263.1609 3  A5              Rx   d 8 27 F4 FD C7 7F 2E 0C F1
 263.1612 3  8F              Rx   d 8 E1 18 FA 7C 52 00 15 10
 263.1613 2  A5              Rx   d 8 27 F4 FD C7 7F 2E 0C F1
 263.1622 2  1BA             Rx   d 8 0C 00 00 44 2F F3 72 F0
 263.1628 3  96              Rx   d 8 51 00 36 C7 01 FF FF FF
 263.1631 2  96              Rx   d 8 51 00 36 C7 01 FF FF FF
 263.1631 1  1BA             Rx   d 8 0C 00 00 44 2F F3 72 F0
 263.1642 2  E4              Rx   d 8 EE FD 9B FF F2 8E FF F2
 263.1650 3  F3              Rx   d 8 0A E4 04 C0 F0 FF FF FF
 263.1651 2  199             Rx   d 6 FF FD 81 7F FF AF
 263.1652 3  D9              Rx   d 8 C4 14 00 10 00 E0 7F C0
 263.1653 2  19A             Rx   d 6 FF FD 7C 7E FF 2F
 263.1654 3  199             Rx   d 6 2C FD 81 7F 1D A0
 263.1655 2  19F             Rx   d 6 FF FD F6 7F 00 20
 263.1656 3  DC              Rx   d 6 A1 14 22 D0 07 FE
 263.1657 2  D9              Rx   d 8 C4 14 00 10 00 E0 7F C0
 263.1658 3  19A             Rx   d 6 31 FD 7C 7E 00 20
 263.1660 3  19F             Rx   d 6 D4 FD F6 7F 00 20
 263.1661 1  19A             Rx   d 6 31 FD 7C 7E 00 20
 263.1663 3  30B             Rx   d 8 17 58 02 C0 30 FF FF FF
 263.1666 2  30B             Rx   d 8 17 58 02 C0 30 FF FF FF
 263.1671 1  19F             Rx   d 6 D4 FD F6 7F 00 20
 263.1683 1  30B             Rx   d 8 17 58 02 C0 30 FF FF FF
 263.1692 3  EF              Rx   d 8 9F F3 00 7D 21 00 7D FF
 263.1694 2  1C4             Rx   d 7 00 00 00 00 B0 20 F2
 263.1695 3  1A1             Rx   d 5 60 CE 00 00 81
 263.1696 2  1A1             Rx   d 5 60 CE 00 00 81
 263.1698 2  1C5             Rx   d 7 00 00 00 00 B0 20 F2
 263.1703 3  254             Rx   d 8 FF 7F FF 7F FF 7F FF 7F
 263.1707 3  137             Rx   d 2 FD BD
 263.1710 1  1A1             Rx   d 5 60 CE 00 00 81
 263.1724 2  2EB             Rx   d 8 6B F5 12 13 11 51 FF FF
 263.1726 1  F6              Rx   d 2 F3 F3
 263.1739 3  55E             Rx   d 8 00 00 00 00 01 00 00 5E
 263.1741 2  E4              Rx   d 8 09 FE 9B FF F2 8E FF F2
 263.1747 3  297             Rx   d 7 84 E2 F0 E0 F0 F0 FC
 263.1751 2  297             Rx   d 7 84 E2 F0 E0 F0 F0 FC
 263.1759 3  3FD             Rx   d 5 11 00 20 FC FF
 263.1760 1  297             Rx   d 7 84 E2 F0 E0 F0 F0 FC
 263.1760 2  2BB             Rx   d 5 21 FC 00 00 F2
 263.1761 3  2BB             Rx   d 5 21 FC 00 00 F2
 263.1763 3  289             Rx   d 8 8A FC E0 E0 E1 00 EC 01
 263.1769 1  2BB             Rx   d 5 21 FC 00 00 F2
 263.1770 3  2A7             Rx   d 5 A9 FB FE FF 14
 263.1793 3  18D             Rx   d 7 FC 47 0A FF 07 00 7E
 263.1803 2  302             Rx   d 7 FF F0 AB 7E F1 FF FF
 263.1803 3  302             Rx   d 7 51 F0 AB 7E F1 FF FF
 263.1807 3  137             Rx   d 2 FD BD
 263.1810 3  A5              Rx   d 8 3C F5 FC C7 7F 2E 0C F1
 263.1811 2  1A0             Rx   d 8 00 80 0A 80 FF 00 F0 FF
 263.1812 3  2E0             Rx   d 6 A0 FC 46 30 24 FF
 263.1814 2  A5              Rx   d 8 3C F5 FC C7 7F 2E 0C F1
 263.1817 3  197             Rx   d 4 85 08 0E C0
 263.1818 3  2A5             Rx   d 2 FF FF
 263.1831 1  A5              Rx   d 8 3C F5 FC C7 7F 2E 0C F1
 263.1842 2  E4              Rx   d 8 08 F0 9B FF F2 8E FF F2
 263.1849 2  349             Rx   d 5 FE 01 F4 01 00
 263.1850 3  F3              Rx   d 8 57 E5 04 C0 F0 FF FF FF
 263.1851 2  199             Rx   d 6 FF F0 65 7F FF AF
 263.1852 3  D9              Rx   d 8 99 15 00 10 00 E0 7F C0
 263.1854 2  19A             Rx   d 6 FF F0 57 7E FF 2F
 263.1854 3  DC              Rx   d 6 CB 15 22 D0 07 FE
 263.1856 2  D9              Rx   d 8 99 15 00 10 00 E0 7F C0
 263.1856 3  199             Rx   d 6 21 F0 65 7F 1D A0
 263.1858 2  19F             Rx   d 6 FF F0 13 80 00 20
 263.1858 3  19A             Rx   d 6 F5 F0 57 7E 00 20
 263.1860 3  19F             Rx   d 6 4A F0 13 80 00 20
 263.1860 2  2E5             Rx   d 8 65 F5 11 13 11 1F 10 11
 263.1862 3  349             Rx   d 5 FE 01 F4 01 00
 263.1872 3  1B3             Rx   d 8 FF 0F 00 FC 04 FF 80 45
 263.1876 2  1B3             Rx   d 8 FF 0F 00 FC 04 FF 80 45
 263.1892 3  EF              Rx   d 8 11 F4 00 7D 21 00 7D FF
 263.1894 2  1C4             Rx   d 7 00 00 00 00 B1 20 F2
 263.1895 3  1A1             Rx   d 5 95 C0 00 00 81
 263.1896 2  1A1             Rx   d 5 95 C0 00 00 81
 263.1898 2  1C5             Rx   d 7 00 00 00 00 B1 20 F2
 263.1903 2  173             Rx   d 8 F4 F8 00 02 20 00 F2 C0
 263.1903 3  173             Rx   d 8 F4 F8 00 02 20 00 F2 C0
 263.1906 3  254             Rx   d 8 FF 7F FF 7F FF 7F FF 7F
 263.1908 3  137             Rx   d 2 FD BD
 263.1913 3  8F              Rx   d 8 BC 19 FA 7C 52 00 15 10
 263.1913 1  173             Rx   d 8 F4 F8 00 02 20 00 F2 C0
 263.1918 3  96              Rx   d 8 51 00 36 C7 01 FF FF FF
 263.1922 3  5C0             Rx   d 8 6E 05 00 00 FF FF FF FF
 263.1922 2  96              Rx   d 8 51 00 36 C7 01 FF FF FF
 263.1941 2  E4              Rx   d 8 55 F1 9B FF F2 8E FF F2
 263.1944 2  257             Rx   d 8 74 02 FF FF FF FF FF FF
 263.1993 3  18D             Rx   d 7 FC 47 0A FF 07 00 7E
 263.2003 2  302             Rx   d 7 FF F2 AB 7E F1 FF FF
 263.2007 3  137             Rx   d 2 FD BD
 263.2009 3  A5              Rx   d 8 DB F6 FC C7 7F 2E 0C F1
 263.2013 2  A5              Rx   d 8 DB F6 FC C7 7F 2E 0C F1
 263.2023 3  2FC             Rx   d 7 81 01 00 FF FF FF FF
 263.2024 3  314             Rx   d 3 FF 3F FF
 263.2026 2  2FC             Rx   d 7 81 01 00 FF FF FF FF
 263.2035 1  2FC             Rx   d 7 81 01 00 FF FF FF FF
 263.2043 1  314             Rx   d 3 FF 3F FF
 263.2045 2  E4              Rx   d 8 B2 F2 9B FF F2 8E FF F2
 263.2050 2  199             Rx   d 6 FF F2 7B 7F FF AF
 263.2050 3  F3              Rx   d 8 B0 E6 04 C0 F0 FF FF FF
 263.2052 2  19A             Rx   d 6 FF F2 8B 7E FF 2F
 263.2052 3  D9              Rx   d 8 7E 16 00 10 00 E0 7F C0
 263.2054 2  19F             Rx   d 6 FF F2 0F 80 00 20
 263.2054 3  199             Rx   d 6 25 F2 7B 7F 1D A0
 263.2056 3  DC              Rx   d 6 75 16 22 D0 07 FE
 263.2056 2  D9              Rx   d 8 7E 16 00 10 00 E0 7F C0
 263.2058 3  19A             Rx   d 6 77 F2 8B 7E 00 20
 263.2060 2  1A6             Rx   d 8 00 00 00 00 00 00 D0 FD
 263.2060 3  19F             Rx   d 6 69 F2 0F 80 00 20
 263.2062 3  397             Rx   d 3 D2 D8 4A
 263.2083 1  2BF             Rx   d 3 FF FF FF
 263.2092 3  EF              Rx   d 8 4C F5 00 7D 21 00 7D FF
 263.2094 2  1C4             Rx   d 7 00 00 00 00 B1 20 F2
 263.2095 3  1A1             Rx   d 5 08 C1 00 00 81
 263.2096 2  1A1             Rx   d 5 08 C1 00 00 81
 263.2098 2  1C5             Rx   d 7 00 00 00 00 B1 20 F2
 263.2103 3  254             Rx   d 8 FF 7F FF 7F FF 7F FF 7F
 263.2115 3  137             Rx   d 2 FD BD
 263.2117 3  197             Rx   d 4 0A 09 0E C0
 263.2121 2  1BA             Rx   d 8 0E 00 00 44 2F F3 72 F0
 263.2130 1  1BA             Rx   d 8 0E 00 00 44 2F F3 72 F0
 263.2145 2  E4              Rx   d 8 EF F3 9B FF F2 8E FF F2
 263.2159 2  130             Rx   d 5 05 F0 FC FF FF
 263.2193 3  18D             Rx   d 7 FC 47 0A FE 07 00 7E
 263.2203 2  302             Rx   d 7 FF F4 AB 7E F1 FF FF
 263.2203 3  302             Rx   d 7 54 F4 AB 7E F1 FF FF
 263.2207 3  137             Rx   d 2 FD BD
 263.2209 3  A5              Rx   d 8 97 F7 FC C7 7F 30 0C F1
 263.2212 3  8F              Rx   d 8 5B 1A FA 7C 52 00 15 10
 263.2213 2  A5              Rx   d 8 97 F7 FC C7 7F 30 0C F1
 263.2219 3  96              Rx   d 8 51 00 36 C7 01 FF FF FF
 263.2221 3  5B0             Rx   d 8 44 00 00 00 00 06 FC FF
 263.2222 2  96              Rx   d 8 51 00 36 C7 01 FF FF FF
 263.2245 2  E4              Rx   d 8 61 F4 9B FF F2 8E FF F2
 263.2248 3  351             Rx   d 5 00 05 4F 4C F0
 263.2250 3  F3              Rx   d 8 ED E7 04 C0 F0 FF FF FF
 263.2251 2  199             Rx   d 6 FF F4 4F 7F FF AF
 263.2252 3  D9              Rx   d 8 23 17 00 10 00 E0 7F C0
 263.2253 2  19A             Rx   d 6 FF F4 4D 7E FF 2F
 263.2254 3  DC              Rx   d 6 1F 17 22 D0 07 FE
 263.2255 2  19F             Rx   d 6 FF F4 FC 7F 00 20
 263.2256 3  199             Rx   d 6 65 F4 4F 7F 1D A0
 263.2257 2  D9              Rx   d 8 23 17 00 10 00 E0 7F C0
 263.2258 3  19A             Rx   d 6 DE F4 4D 7E 00 20
 263.2259 2  351             Rx   d 5 00 05 4F 4C F0
 263.2260 3  19F             Rx   d 6 72 F4 FC 7F 00 20
 263.2292 3  EF              Rx   d 8 AB F6 00 7D 21 00 7D FF
 263.2294 2  1C4             Rx   d 7 00 00 00 00 B1 20 F2
 263.2295 3  1A1             Rx   d 5 B2 C2 00 00 81
 263.2296 2  1A1             Rx   d 5 B2 C2 00 00 81
 263.2298 2  1C5             Rx   d 7 00 00 00 00 B1 20 F2
 263.2303 3  254             Rx   d 8 FF 7F FF 7F FF 7F FF 7F
 263.2315 3  137             Rx   d 2 FD BD
 263.2345 2  E4              Rx   d 8 3C F5 9B FF F2 8E FF F2
 263.2393 3  18D             Rx   d 7 FC 47 0A FF 07 00 7E
 263.2402 2  302             Rx   d 7 FF F6 AB 7E F1 FF FF
 263.2407 3  137             Rx   d 2 FD BD
 263.2410 3  A5              Rx   d 8 DA F8 FC C7 7F 2E 0C F1
 263.2413 2  A5              Rx   d 8 DA F8 FC C7 7F 2E 0C F1
 263.2417 3  197             Rx   d 4 86 0A 0E C0
 263.2442 2  257             Rx   d 8 29 03 FF FF FF FF FF FF
 263.2444 3  12F             Rx   d 8 7F 74 8A DD F1 05 30 86
 263.2445 2  E4              Rx   d 8 DB F6 9B FF F2 8E FF F2
 263.2451 2  199             Rx   d 6 FF F6 73 7F FF AF
 263.2451 3  199             Rx   d 6 0C F6 73 7F 1D A0
 263.2453 2  19A             Rx   d 6 FF F6 8C 7E FF 2F
 263.2454 3  D9              Rx   d 8 7F 18 00 10 00 E0 7F C0
 263.2455 2  19F             Rx   d 6 FF F6 F5 7F 00 20
 263.2456 3  F3              Rx   d 8 B1 E8 04 C0 F0 FF FF FF
 263.2458 2  D9              Rx   d 8 7F 18 00 10 00 E0 7F C0
 263.2458 3  DC              Rx   d 6 63 18 22 D0 07 FE
 263.2460 3  19A             Rx   d 6 36 F6 8C 7E 00 20
 263.2460 2  12F             Rx   d 8 99 79 8A DD F1 05 30 86
 263.2462 3  19F             Rx   d 6 A7 F6 F5 7F 00 20
 263.2469 1  12F             Rx   d 8 99 79 8A DD F1 05 30 86
 263.2472 3  2C5             Rx   d 7 7A FD 00 30 C6 70 C8
 263.2492 3  EF              Rx   d 8 F6 F7 00 7D 21 00 7D FF
 263.2494 2  1C4             Rx   d 7 00 00 00 00 B1 20 F2
 263.2495 3  1A1             Rx   d 5 2F C3 00 00 81
 263.2496 2  1A1             Rx   d 5 2F C3 00 00 81
 263.2498 2  1C5             Rx   d 7 00 00 00 00 B1 20 F2
 263.2502 3  254             Rx   d 8 FF 7F FF 7F FF 7F FF 7F
 263.2512 3  137             Rx   d 2 FD BD
 263.2514 3  8F              Rx   d 8 06 1B FA 7C 52 00 15 10
 263.2518 3  96              Rx   d 8 51 00 36 C7 01 FF FF FF
 263.2521 2  96              Rx   d 8 51 00 36 C7 01 FF FF FF
 263.2545 3  501             Rx   d 8 00 00 00 00 FE 00 00 01
 263.2545 2  E4              Rx   d 8 86 F7 9B FF F2 8E FF F2
 263.2546 3  281             Rx   d 2 31 F3
 263.2549 3  2C4             Rx   d 8 1C 08 FF 64 72 64 01 F1
 263.2555 1  281             Rx   d 2 31 F3
 263.2570 3  2A7             Rx   d 5 5D FC FE FF 14
 263.2593 3  18D             Rx   d 7 FB 47 0A FD 07 00 7E
 263.2602 2  163             Rx   d 8 FF FF E5 24 FF FF FF FF
 263.2603 3  163             Rx   d 8 B6 F8 E5 24 E4 24 00 F0
 263.2605 2  302             Rx   d 7 FF F8 AB 7E F1 FF FF
 263.2605 3  302             Rx   d 7 5B F8 AB 7E F1 FF FF
 263.2607 3  137             Rx   d 2 FD BD
 263.2609 3  A5              Rx   d 8 6A F9 FC D7 7F 2C 0C F1
 263.2612 1  302             Rx   d 7 FF FF AB 7E FF FF FF
 263.2612 2  A5              Rx   d 8 6A F9 FC D7 7F 2C 0C F1
 263.2621 2  1BA             Rx   d 8 0C 00 00 44 2F F3 72 F0
 263.2630 1  1BA             Rx   d 8 0C 00 00 44 2F F3 72 F0
 263.2645 2  E4              Rx   d 8 DA F8 9B FF F2 8E FF F2
 263.2649 3  F3              Rx   d 8 EC E9 04 C0 F0 FF FF FF
 263.2650 2  199             Rx   d 6 FF F8 5B 7F FF AF
 263.2652 2  19A             Rx   d 6 FF F8 5B 7E FF 2F
 263.2652 3  D9              Rx   d 8 22 19 00 10 00 E0 7F C0
 263.2654 3  DC              Rx   d 6 09 19 22 D0 07 FE
 263.2654 2  19F             Rx   d 6 FF F8 0F 80 00 20
 263.2656 3  199             Rx   d 6 CC F8 5B 7F 1D A0
 263.2656 2  D9              Rx   d 8 22 19 00 10 00 E0 7F C0
 263.2658 3  19A             Rx   d 6 50 F8 5B 7E 00 20
 263.2658 2  301             Rx   d 7 E7 F8 D6 7E FF 7F 22
 263.2659 1  19A             Rx   d 6 50 F8 5B 7E 00 20
 263.2660 3  19F             Rx   d 6 CA F8 0F 80 00 20
 263.2662 3  301             Rx   d 7 E7 F8 D6 7E FF 7F 22
 263.2670 1  19F             Rx   d 6 CA F8 0F 80 00 20
 263.2670 2  438             Rx   d 4 00 FB 02 FF
 263.2692 3  EF              Rx   d 8 AA F8 00 7D 21 00 7D FF
 263.2694 2  1C4             Rx   d 7 00 00 00 00 B1 20 F2
 263.2695 3  1A1             Rx   d 5 DB C4 00 00 81
 263.2696 2  1A1             Rx   d 5 DB C4 00 00 81
 263.2698 2  1C5             Rx   d 7 00 00 00 00 B1 20 F2
 263.2702 3  254             Rx   d 8 FF 7F FF 7F FF 7F FF 7F
 263.2709 1  1A1             Rx   d 5 DB C4 00 00 81
 263.2712 3  137             Rx   d 2 FD BD
 263.2717 3  197             Rx   d 4 09 0B 0E C0
 263.2725 1  F6              Rx   d 2 F3 F3
 263.2738 3  D7              Rx   d 2 32 FF
 263.2745 2  E4              Rx   d 8 87 F9 9B FF F2 8E FF F2
 263.2758 3  3FD             Rx   d 5 8C 01 20 FC FF
 263.2760 2  2BB             Rx   d 5 BC FD 00 00 F2
 263.2761 3  2BB             Rx   d 5 BC FD 00 00 F2
 263.2763 3  289             Rx   d 8 D7 FD E0 E0 E1 00 EC 01
 263.2768 1  2BB             Rx   d 5 BC FD 00 00 F2
 263.2793 3  18D             Rx   d 7 FC 47 0A 00 08 00 7E
 263.2802 2  302             Rx   d 7 FF FA AB 7E F1 FF FF
 263.2807 3  137             Rx   d 2 FD BD
 263.2810 3  A5              Rx   d 8 8B FA FC D7 7F 28 0C F1
 263.2811 2  1A0             Rx   d 8 00 80 0A 60 FF 00 F0 FF
 263.2812 3  8F              Rx   d 8 88 1C FA 7C 52 00 15 10
 263.2814 2  A5              Rx   d 8 8B FA FC D7 7F 28 0C F1
 263.2814 3  2E0             Rx   d 6 CA FD 46 30 24 FF
 263.2822 1  5F8             Rx   d 8 6E 0A 00 FC FF FF FF FF
 263.2825 3  5F8             Rx   d 8 6E 0A 00 FC FF FF FF FF
 263.2827 3  96              Rx   d 8 51 00 36 C7 01 FF FF FF
 263.2832 2  96              Rx   d 8 51 00 36 C7 01 FF FF FF
 263.2833 1  A5              Rx   d 8 8B FA FC D7 7F 28 0C F1
 263.2844 2  199             Rx   d 6 FF F9 77 7F FF AF
 263.2844 3  199             Rx   d 6 3E F9 77 7F 1D A0
 263.2846 2  19A             Rx   d 6 FF F9 6E 7E FF 2F
 263.2847 3  19A             Rx   d 6 86 F9 6E 7E 00 20
 263.2848 2  19F             Rx   d 6 FF F9 08 80 00 20
 263.2849 3  19F             Rx   d 6 54 F9 08 80 00 20
 263.2850 2  E4              Rx   d 8 60 FA 9B FF F2 8E FF F2
 263.2851 3  F3              Rx   d 8 0B EA 04 C0 F0 FF FF FF
 263.2853 3  D9              Rx   d 8 C5 1A 00 10 00 E0 7F C0
 263.2855 3  397             Rx   d 3 D2 D8 4B
 263.2857 2  D9              Rx   d 8 C5 1A 00 10 00 E0 7F C0
 263.2857 3  DC              Rx   d 6 B7 1A 22 D0 07 FE
 263.2872 3  1B3             Rx   d 8 FF 0F 00 FD 04 FF 80 46
 263.2875 2  1B3             Rx   d 8 FF 0F 00 FD 04 FF 80 46
 263.2893 3  EF              Rx   d 8 F7 F9 00 7D 21 00 7D FF
 263.2895 2  1C4             Rx   d 7 00 00 00 00 B2 20 F2
 263.2896 3  1A1             Rx   d 5 46 C5 00 00 81
 263.2897 2  1A1             Rx   d 5 46 C5 00 00 81
 263.2899 2  1C5             Rx   d 7 00 00 00 00 B2 20 F2
 263.2902 2  173             Rx   d 8 C1 F3 00 02 20 00 F2 C0
 263.2902 3  173             Rx   d 8 C1 F3 00 02 20 00 F2 C0
 263.2905 3  254             Rx   d 8 FF 7F FF 7F FF 7F FF 7F
 263.2908 3  137             Rx   d 2 FD BD
 263.2922 3  5C0             Rx   d 8 6E 01 00 01 FF FF FF FF
 263.2942 2  257             Rx   d 8 A7 04 FF FF FF FF FF FF
 263.2947 2  E4              Rx   d 8 3D FB 9B FF F2 8E FF F2
 263.2971 3  36E             Rx   d 5 BD F6 FE FF 15
 263.2994 3  18D             Rx   d 7 FC 47 0A FE 07 00 7E
 263.3002 2  302             Rx   d 7 FF FC AB 7E F1 FF FF
 263.3002 3  302             Rx   d 7 5E FC AB 7E F1 FF FF
 263.3007 3  137             Rx   d 2 FD BD
 263.3010 3  A5              Rx   d 8 96 FB FD D7 7F 2C 0C F1
 263.3013 2  A5              Rx   d 8 96 FB FD D7 7F 2C 0C F1
 263.3017 3  197             Rx   d 4 83 0C 0E C0
 263.3018 3  1D6             Rx   d 2 F0 C0
 263.3020 3  1EE             Rx   d 2 00 FC
 263.3021 3  2A6             Rx   d 2 00 AC
 263.3021 2  1D6             Rx   d 2 F0 C0
 263.3023 2  1EE             Rx   d 2 00 FC
 263.3023 3  2FC             Rx   d 7 81 01 00 FF FF FF FF
 263.3025 3  189             Rx   d 6 F9 F6 00 00 00 22
 263.3025 2  26E             Rx   d 8 00 40 40 50 FF FF FF FF
 263.3027 1  1D6             Rx   d 2 F0 C0
 263.3027 2  2A6             Rx   d 2 00 AC
 263.3029 2  2FC             Rx   d 7 81 01 00 FF FF FF FF
 263.3031 2  45C             Rx   d 8 FF FF FF 7F 2F 00 FF FF
 263.3039 1  26E             Rx   d 8 00 40 40 50 FF FF FF FF
 263.3044 2  199             Rx   d 6 FF FB 55 7F FF AF
 263.3044 3  199             Rx   d 6 87 FB 55 7F 1D A0
 263.3045 1  2A6             Rx   d 2 00 AC
 263.3046 2  19A             Rx   d 6 FF FB 8E 7E FF 2F
 263.3046 3  19A             Rx   d 6 B9 FB 8E 7E 00 20
 263.3048 2  19F             Rx   d 6 FF FB F5 7F 00 20
 263.3049 3  19F             Rx   d 6 0F FB F5 7F 00 20
 263.3050 2  E4              Rx   d 8 B3 FC 9B FF F2 8E FF F2
 263.3053 3  F3              Rx   d 8 56 EB 04 C0 F0 FF FF FF
 263.3055 3  D9              Rx   d 8 98 1B 00 10 00 E0 7F C0
 263.3057 1  2FC             Rx   d 7 81 01 00 FF FF FF FF
 263.3058 3  DC              Rx   d 6 DD 1B 22 D0 07 FE
 263.3060 2  D9              Rx   d 8 98 1B 00 10 00 E0 7F C0
 263.3063 2  1A6             Rx   d 8 00 00 00 00 00 00 60 FF
 263.3082 1  2BF             Rx   d 3 FF FF FF
 263.3093 3  EF              Rx   d 8 10 FA 00 7D 21 00 7D FF
 263.3095 2  1C4             Rx   d 7 00 00 00 00 B2 20 F2
 263.3096 3  1A1             Rx   d 5 FC C6 00 00 81
 263.3097 2  1A1             Rx   d 5 FC C6 00 00 81
 263.3099 2  1C5             Rx   d 7 00 00 00 00 B2 20 F2
 263.3102 3  254             Rx   d 8 FF 7F FF 7F FF 7F FF 7F
 263.3107 3  137             Rx   d 2 FD BD
 263.3110 3  8F              Rx   d 8 D5 1D FA 7C 52 00 15 10
 263.3119 3  96              Rx   d 8 51 00 36 C7 01 FF FF FF
 263.3121 2  1BA             Rx   d 8 0E 00 00 44 2F F3 72 F0
 263.3123 2  96              Rx   d 8 51 00 36 C7 01 FF FF FF
 263.3130 1  1BA             Rx   d 8 0E 00 00 44 2F F3 72 F0
 263.3144 3  1E1             Rx   d 6 42 F0 01 FF FF FF
 263.3146 2  E4              Rx   d 8 EE FD 9B FF F2 8E FF F2
 263.3159 2  130             Rx   d 5 05 F0 FC FF FF
 263.3194 3  18D             Rx   d 7 FB 47 0A FE 07 00 7E
 263.3202 2  302             Rx   d 7 FF FE AB 7E F1 FF FF
 263.3207 3  137             Rx   d 2 FD BD
 263.3209 3  A5              Rx   d 8 E7 FC FD C7 7F 32 0C F1
 263.3212 2  A5              Rx   d 8 E7 FC FD C7 7F 32 0C F1
 263.3244 2  199             Rx   d 6 FF FD 75 7F FF AF
 263.3244 3  199             Rx   d 6 AC FD 75 7F 1D A0
 263.3246 2  19A             Rx   d 6 FF FD 7E 7E FF 2F
 263.3246 3  19A             Rx   d 6 16 FD 7E 7E 00 20
 263.3248 2  19F             Rx   d 6 FF FD 0B 80 00 20
 263.3248 3  19F             Rx   d 6 5B FD 0B 80 00 20
 263.3250 2  E4              Rx   d 8 09 FE 9B FF F2 8E FF F2
 263.3251 3  D9              Rx   d 8 16 1C 00 10 00 E0 7F C0
 263.3253 3  F3              Rx   d 8 D8 EC 04 C0 F0 FF FF FF
 263.3254 2  D9              Rx   d 8 16 1C 00 10 00 E0 7F C0
 263.3255 3  DC              Rx   d 6 D6 1C 22 D0 07 FE
 263.3259 1  37A             Rx   d 3 6B FC 20
 263.3261 2  37A             Rx   d 3 6B FC 20
 263.3267 1  379             Rx   d 3 28 FC 70
 263.3270 2  379             Rx   d 3 28 FC 70
 263.3292 3  EF              Rx   d 8 4D FB 00 7D 21 00 7D FF
 263.3294 2  1C4             Rx   d 7 00 00 00 00 B2 20 F2
 263.3295 3  1A1             Rx   d 5 61 C7 00 00 81
 263.3296 2  1A1             Rx   d 5 61 C7 00 00 81
 263.3298 2  1C5             Rx   d 7 00 00 00 00 B2 20 F2
 263.3302 3  254             Rx   d 8 FF 7F FF 7F FF 7F FF 7F
 263.3307 3  137             Rx   d 2 FD BD
 263.3317 3  197             Rx   d 4 0C 0D 0E C0
 263.3346 2  E4              Rx   d 8 08 F0 9B FF F2 8E FF F2
 263.3346 3  19B             Rx   d 8 F3 46 40 55 FD FF FF FF
 263.3350 2  19B             Rx   d 8 F3 46 40 55 FD FF FF FF
 263.3369 3  C0              Rx   d 2 F6 FF
 263.3371 3  2A7             Rx   d 5 C0 FD FE FF 14
 263.3393 3  18D             Rx   d 7 FC 47 0A FF 07 00 7E
 263.3401 2  302             Rx   d 7 FF F1 AB 7E F1 FF FF
 263.3402 3  302             Rx   d 7 17 F1 AB 7E F1 FF FF
 263.3408 3  137             Rx   d 2 FD BD
 263.3410 3  A5              Rx   d 8 FC FD FC C7 7F 32 0C F1
 263.3412 3  8F              Rx   d 8 32 1E FA 7C 52 00 15 10
 263.3413 2  A5              Rx   d 8 FC FD FC C7 7F 32 0C F1
 263.3420 3  96              Rx   d 8 51 00 36 C7 01 FF FF FF
 263.3423 2  96              Rx   d 8 51 00 36 C7 01 FF FF FF
 263.3442 2  257             Rx   d 8 FA 05 FF FF FF FF FF FF
 263.3444 3  12F             Rx   d 8 22 75 8A DD F1 05 30 86
 263.3444 2  199             Rx   d 6 FF F0 66 7F FF AF
 263.3446 3  199             Rx   d 6 9B F0 66 7F 1D A0
 263.3446 2  19A             Rx   d 6 FF F0 75 7E FF 2F
 263.3448 3  19A             Rx   d 6 98 F0 75 7E 00 20
 263.3448 2  19F             Rx   d 6 FF F0 09 80 00 20
 263.3450 3  19F             Rx   d 6 D4 F0 09 80 00 20
 263.3451 2  E4              Rx   d 8 55 F1 9B FF F2 8E FF F2
 263.3453 3  F3              Rx   d 8 85 ED 04 C0 F0 FF FF FF
 263.3456 3  D9              Rx   d 8 4B 1D 00 10 00 E0 7F C0
 263.3457 3  397             Rx   d 3 D2 D8 4A
 263.3459 2  12F             Rx   d 8 7E 7A 8A DD F1 05 30 86
 263.3459 3  DC              Rx   d 6 BC 1D 22 D0 07 FE
 263.3461 2  D9              Rx   d 8 4B 1D 00 10 00 E0 7F C0
 263.3469 1  12F             Rx   d 8 7E 7A 8A DD F1 05 30 86
 263.3472 3  2C5             Rx   d 7 B0 FE 00 30 C6 70 C8
 263.3492 3  EF              Rx   d 8 C3 FC 00 7D 21 00 7D FF
 263.3494 2  1C4             Rx   d 7 00 00 00 00 B2 20 F2
 263.3495 3  1A1             Rx   d 5 09 C8 00 00 81
 263.3496 2  1A1             Rx   d 5 09 C8 00 00 81
 263.3498 2  1C5             Rx   d 7 00 00 00 00 B2 20 F2
 263.3502 3  254             Rx   d 8 FF 7F FF 7F FF 7F FF 7F
 263.3507 3  137             Rx   d 2 FD BD
 263.3539 3  2C4             Rx   d 8 36 08 FF 64 72 64 01 F1
 263.3541 3  281             Rx   d 2 2F F3
 263.3547 2  E4              Rx   d 8 B2 F2 9B FF F2 8E FF F2
 263.3550 2  572             Rx   d 8 00 00 00 00 28 00 00 72
 263.3550 1  281             Rx   d 2 2F F3
 263.3593 3  18D             Rx   d 7 FC 47 0A FF 07 00 7E
 263.3601 2  163             Rx   d 8 FF FF E5 24 FF FF FF FF
 263.3601 3  163             Rx   d 8 83 F3 E5 24 E4 24 00 F0
 263.3603 2  302             Rx   d 7 FF F3 AB 7E F1 FF FF
 263.3607 3  137             Rx   d 2 FD BD
 263.3609 3  A5              Rx   d 8 09 FE FC C7 7F 2E 0C F1
 263.3613 2  A5              Rx   d 8 09 FE FC C7 7F 2E 0C F1
 263.3617 3  197             Rx   d 4 80 0E 0E C0
 263.3628 3  314             Rx   d 3 FF 3F FF
 263.3638 1  314             Rx   d 3 FF 3F FF
 263.3644 2  199             Rx   d 6 FF F2 75 7F FF AF
 263.3644 3  199             Rx   d 6 D0 F2 75 7F 1D A0
 263.3646 2  19A             Rx   d 6 FF F2 67 7E FF 2F
 263.3646 3  19A             Rx   d 6 4E F2 67 7E 00 20
 263.3648 2  19F             Rx   d 6 FF F2 FF 7F 00 20
 263.3648 3  19F             Rx   d 6 A9 F2 FF 7F 00 20
 263.3650 2  E4              Rx   d 8 EF F3 9B FF F2 8E FF F2
 263.3653 1  19A             Rx   d 6 4E F2 67 7E 00 20
 263.3657 3  F3              Rx   d 8 62 EE 04 C0 F0 FF FF FF
 263.3659 3  D9              Rx   d 8 AC 1E 00 10 00 E0 7F C0
 263.3661 3  DC              Rx   d 6 02 1E 22 D0 07 FE
 263.3662 2  D9              Rx   d 8 AC 1E 00 10 00 E0 7F C0
 263.3663 1  19F             Rx   d 6 A9 F2 FF 7F 00 20
 263.3692 3  EF              Rx   d 8 9E FD 00 7D 21 00 7D FF
 263.3694 2  1C4             Rx   d 7 00 00 00 00 B2 20 F2
 263.3695 3  1A1             Rx   d 5 94 C9 00 00 81
 263.3696 2  1A1             Rx   d 5 94 C9 00 00 81
 263.3698 2  1C5             Rx   d 7 00 00 00 00 B2 20 F2
 263.3701 3  254             Rx   d 8 FF 7F FF 7F FF 7F FF 7F
 263.3707 3  137             Rx   d 2 FD BC
 263.3708 1  1A1             Rx   d 5 94 C9 00 00 81
 263.3710 3  8F              Rx   d 8 33 10 FA 7C 52 00 15 10
 263.3718 3  96              Rx   d 8 51 00 36 C7 01 FF FF FF
 263.3721 2  96              Rx   d 8 51 00 36 C7 01 FF FF FF
 263.3724 2  2EB             Rx   d 8 8C F6 12 13 11 51 FF FF
 263.3726 1  F6              Rx   d 2 F3 F3
 263.3746 2  E4              Rx   d 8 61 F4 9B FF F2 8E FF F2
 263.3758 3  396             Rx   d 2 FD FF
 263.3760 3  39A             Rx   d 6 00 53 00 03 E2 00
 263.3760 2  2BB             Rx   d 5 06 FE 00 00 F2
 263.3762 3  2BB             Rx   d 5 06 FE 00 00 F2
 263.3764 3  289             Rx   d 8 30 FE E0 E0 E1 00 EC 01
 263.3766 3  3FD             Rx   d 5 36 02 20 FC FF
 263.3768 1  2BB             Rx   d 5 06 FE 00 00 F2
 263.3793 3  18D             Rx   d 7 FC 47 0A FE 07 00 7E
 263.3801 2  302             Rx   d 7 FF F5 AB 7E F1 FF FF
 263.3801 3  302             Rx   d 7 12 F5 AB 7E F1 FF FF
 263.3808 3  137             Rx   d 2 FD BC
 263.3810 3  A5              Rx   d 8 1A F0 FC C7 7F 32 0C F1
 263.3812 3  2E0             Rx   d 6 74 FE 46 30 24 FF
 263.3812 2  1A0             Rx   d 8 00 80 09 60 FF 00 F0 FF
 263.3815 2  A5              Rx   d 8 1A F0 FC C7 7F 32 0C F1
 263.3816 3  2A5             Rx   d 2 FF FF
 263.3830 1  A5              Rx   d 8 1A F0 FC C7 7F 32 0C F1
 263.3844 2  199             Rx   d 6 FF F4 69 7F FF AF
 263.3844 3  199             Rx   d 6 46 F4 69 7F 1D A0
 263.3846 2  19A             Rx   d 6 FF F4 6B 7E FF 2F
 263.3846 3  19A             Rx   d 6 FD F4 6B 7E 00 20
 263.3848 2  19F             Rx   d 6 FF F4 09 80 00 20
 263.3848 3  19F             Rx   d 6 61 F4 09 80 00 20
 263.3850 2  E4              Rx   d 8 3C F5 9B FF F2 8E FF F2
 263.3851 3  297             Rx   d 7 C2 E3 F0 E0 F0 F0 FC
 263.3853 2  2E5             Rx   d 8 82 F6 11 13 11 1F 10 11
 263.3855 2  297             Rx   d 7 C2 E3 F0 E0 F0 F0 FC
 263.3857 3  351             Rx   d 5 00 05 4F 4C F0
 263.3857 2  349             Rx   d 5 FE 01 F4 01 00
 263.3858 3  3FB             Rx   d 6 B3 9C 01 10 F0 4E
 263.3861 3  D9              Rx   d 8 AD 10 00 10 00 E0 7F C0
 263.3861 2  351             Rx   d 5 00 05 4F 4C F0
 263.3863 3  F3              Rx   d 8 63 E0 04 C0 F0 FF FF FF
 263.3863 1  297             Rx   d 7 C2 E3 F0 E0 F0 F0 FC
 263.3864 2  D9              Rx   d 8 AD 10 00 10 00 E0 7F C0
 263.3865 3  DC              Rx   d 6 14 10 22 D0 07 FE
 263.3867 3  349             Rx   d 5 FE 01 F4 01 00
 263.3872 3  1B3             Rx   d 8 FF 0F 00 FE 04 FF 80 47
 263.3873 1  3FB             Rx   d 6 B3 9C 01 10 F0 4E
 263.3875 2  1B3             Rx   d 8 FF 0F 00 FE 04 FF 80 47
 263.3892 3  EF              Rx   d 8 79 FE 00 7D 21 00 7D FF
 263.3894 2  1C4             Rx   d 7 00 00 00 00 B3 20 F2
 263.3895 3  1A1             Rx   d 5 2E CA 00 00 81
 263.3896 2  1A1             Rx   d 5 2E CA 00 00 81
 263.3898 2  1C5             Rx   d 7 00 00 00 00 B3 20 F2
 263.3901 2  173             Rx   d 8 C0 FD 00 02 20 00 F2 C0
 263.3901 3  173             Rx   d 8 C0 FD 00 02 20 00 F2 C0
 263.3904 3  254             Rx   d 8 FF 7F FF 7F FF 7F FF 7F
 263.3908 3  137             Rx   d 2 FD BC
 263.3911 1  173             Rx   d 8 C0 FD 00 02 20 00 F2 C0
 263.3917 3  197             Rx   d 4 89 00 0E C0
 263.3921 3  5C0             Rx   d 8 6E 04 00 00 FF FF FF FF
 263.3942 2  257             Rx   d 8 1D 06 FF FF FF FF FF FF
 263.3947 2  E4              Rx   d 8 DB F6 9B FF F2 8E FF F2
 263.3993 3  18D             Rx   d 7 FC 47 0A FF 07 00 7E
 263.4001 2  302             Rx   d 7 FF F7 AB 7E F1 FF FF
 263.4007 3  137             Rx   d 2 FD BC
 263.4009 3  A5              Rx   d 8 F1 F1 FC B7 7F 36 0C F1
 263.4012 3  8F              Rx   d 8 6E 11 FA 7C 52 00 15 10
 263.4013 2  A5              Rx   d 8 F1 F1 FC B7 7F 36 0C F1
 263.4014 3  3F9             Rx   d 8 B3 19 82 26 7F 7C 03 6C
 263.4018 2  3F9             Rx   d 8 B3 19 82 26 7F 7C 03 6C
 263.4025 3  96              Rx   d 8 51 00 36 C7 01 FF FF FF
 263.4028 1  3F9             Rx   d 8 B3 19 82 26 7F 7C 03 6C
 263.4028 3  2FC             Rx   d 7 81 01 00 FF FF FF FF
 263.4029 2  96              Rx   d 8 51 00 36 C7 01 FF FF FF
 263.4032 2  2FC             Rx   d 7 81 01 00 FF FF FF FF
 263.4041 1  2FC             Rx   d 7 81 01 00 FF FF FF FF
 263.4044 2  199             Rx   d 6 FF F6 8C 7F FF AF
 263.4044 3  199             Rx   d 6 AA F6 8C 7F 1D A0
 263.4046 3  135             Rx   d 2 F5 FF
 263.4046 2  19A             Rx   d 6 FF F6 77 7E FF 2F
 263.4048 3  19A             Rx   d 6 DE F6 77 7E 00 20
 263.4048 2  19F             Rx   d 6 FF F6 F6 7F 00 20
 263.4050 3  19F             Rx   d 6 1D F6 F6 7F 00 20
 263.4050 2  E4              Rx   d 8 86 F7 9B FF F2 8E FF F2
 263.4057 3  397             Rx   d 3 D2 D8 4A
 263.4060 3  F3              Rx   d 8 3E E1 04 C0 F0 FF FF FF
 263.4062 2  1A6             Rx   d 8 00 00 00 00 00 00 F0 F0
 263.4062 3  D9              Rx   d 8 F0 11 00 10 00 E0 7F C0
 263.4064 3  DC              Rx   d 6 7E 11 22 D0 07 FE
 263.4065 2  D9              Rx   d 8 F0 11 00 10 00 E0 7F C0
 263.4080 3  510             Rx   d 8 00 00 00 00 FF FF 00 10
 263.4080 2  510             Rx   d 8 00 00 00 00 FF FF 00 10
 263.4082 1  2BF             Rx   d 3 FF FF FF
 263.4092 3  EF              Rx   d 8 78 F0 00 7D 21 00 7D FF
 263.4094 2  1C4             Rx   d 7 00 00 00 00 B3 20 F2
 263.4095 1  510             Rx   d 8 00 00 00 00 FF FF 00 10
 263.4095 3  1A1             Rx   d 5 B3 CB 00 00 81
 263.4096 2  1A1             Rx   d 5 B3 CB 00 00 81
 263.4098 2  1C5             Rx   d 7 00 00 00 00 B3 20 F2
 263.4101 3  254             Rx   d 8 FF 7F FF 7F FF 7F FF 7F
 263.4101 1  2F0             Rx   d 2 75 F0
 263.4103 2  2F0             Rx   d 2 75 F0
 263.4107 3  137             Rx   d 2 FD BC
 263.4114 1  5F8             Rx   d 8 13 FF C1 78 FF FF FF FF
 263.4117 3  5F8             Rx   d 8 13 FF C1 78 FF FF FF FF
 263.4122 2  1BA             Rx   d 8 0C 00 00 44 2F F3 72 F0
 263.4123 1  2F9             Rx   d 6 19 FF 31 0A 0A F2
 263.4126 3  2F9             Rx   d 6 19 FF 31 0A 0A F2
 263.4135 1  1BA             Rx   d 8 0C 00 00 44 2F F3 72 F0
 263.4146 2  E4              Rx   d 8 DA F8 9B FF F2 8E FF F2
 263.4160 2  130             Rx   d 5 05 F0 FC FF FF
 263.4171 3  2A7             Rx   d 5 7A FE FE FF 14
 263.4193 3  18D             Rx   d 7 FB 47 0A FE 07 00 7E
 263.4201 2  302             Rx   d 7 FF F9 AB 7E F1 FF FF
 263.4201 3  302             Rx   d 7 1D F9 AB 7E F1 FF FF
 263.4207 3  137             Rx   d 2 FD BC
 263.4209 3  540             Rx   d 8 00 00 00 00 FE 31 FF 40
 263.4212 3  A5              Rx   d 8 DA F2 FB B7 7F 34 0C F1
 263.4215 2  A5              Rx   d 8 DA F2 FB B7 7F 34 0C F1
 263.4217 3  197             Rx   d 4 06 01 0E C0
 263.4221 2  1BA             Rx   d 8 0C 00 00 44 2F F3 72 F0
 263.4221 3  2ED             Rx   d 3 B9 F3 00
 263.4231 1  1BA             Rx   d 8 0C 00 00 44 2F F3 72 F0
 263.4244 2  199             Rx   d 6 FF F8 73 7F FF AF
 263.4244 3  199             Rx   d 6 1A F8 73 7F 1D A0
 263.4246 2  19A             Rx   d 6 FF F8 57 7E FF 2F
 263.4246 3  19A             Rx   d 6 82 F8 57 7E 00 20
 263.4248 2  E4              Rx   d 8 87 F9 9B FF F2 8E FF F2
 263.4248 3  19F             Rx   d 6 D9 F8 FA 7F 00 20
 263.4250 2  19F             Rx   d 6 FF F8 FA 7F 00 20
 263.4257 3  F3              Rx   d 8 D9 E2 04 C0 F0 FF FF FF
 263.4259 3  D9              Rx   d 8 17 12 00 10 00 E0 7F C0
 263.4261 3  397             Rx   d 3 D2 D8 49
 263.4263 2  D9              Rx   d 8 17 12 00 10 00 E0 7F C0
 263.4263 3  DC              Rx   d 6 C0 12 22 D0 07 FE
 263.4292 3  EF              Rx   d 8 25 F1 00 7D 21 00 7D FF
 263.4294 2  1C4             Rx   d 7 00 00 00 00 B3 20 F2
 263.4295 3  1A1             Rx   d 5 47 CC 00 00 81
 263.4296 2  1A1             Rx   d 5 47 CC 00 00 81
 263.4298 2  1C5             Rx   d 7 00 00 00 00 B3 20 F2
 263.4301 3  254             Rx   d 8 FF 7F FF 7F FF 7F FF 7F
 263.4307 3  137             Rx   d 2 FD BC
 263.4309 3  8F              Rx   d 8 89 12 FA 7C 52 00 15 10
 263.4317 3  96              Rx   d 8 51 00 36 C7 01 FF FF FF
 263.4321 2  96              Rx   d 8 51 00 36 C7 01 FF FF FF
 263.4345 2  E4              Rx   d 8 60 FA 9B FF F2 8E FF F2
 263.4371 3  37E             Rx   d 6 FF F3 E2 12 E2 12
 263.4392 3  18D             Rx   d 7 FC 47 0A FE 07 00 7E
 263.4400 2  302             Rx   d 7 FF FB AB 7E F1 FF FF
 263.4407 3  137             Rx   d 2 FD BC
 263.4410 3  A5              Rx   d 8 31 F3 FB C7 7F 30 0C F1
 263.4413 2  A5              Rx   d 8 31 F3 FB C7 7F 30 0C F1
 263.4441 2  257             Rx   d 8 40 07 FF FF FF FF FF FF
 263.4444 3  12F             Rx   d 8 C5 76 8A DD F1 05 30 86
 263.4444 2  199             Rx   d 6 FF FA 7F 7F FF AF
 263.4446 3  199             Rx   d 6 1C FA 7F 7F 1D A0
 263.4446 2  19A             Rx   d 6 FF FA 85 7E FF 2F
 263.4448 3  19A             Rx   d 6 F5 FA 85 7E 00 20
 263.4449 2  19F             Rx   d 6 FF FA 0B 80 00 20
 263.4450 3  19F             Rx   d 6 50 FA 0B 80 00 20
 263.4451 2  E4              Rx   d 8 3D FB 9B FF F2 8E FF F2
 263.4458 3  F3              Rx   d 8 84 E3 04 C0 F0 FF FF FF
 263.4460 3  D9              Rx   d 8 4A 13 00 10 00 E0 7F C0
 263.4460 2  12F             Rx   d 8 23 7B 8A DD F1 05 30 86
 263.4462 3  DC              Rx   d 6 AA 13 22 D0 07 FE
 263.4463 2  D9              Rx   d 8 4A 13 00 10 00 E0 7F C0
 263.4470 1  12F             Rx   d 8 23 7B 8A DD F1 05 30 86
 263.4472 3  2C5             Rx   d 7 33 F0 00 30 C6 70 C8
 263.4474 3  2F7             Rx   d 6 01 D8 49 09 11 F1
 263.4477 2  2F7             Rx   d 6 01 D8 49 09 11 F1
 263.4485 1  2F7             Rx   d 6 01 D8 49 09 11 F1
 263.4492 3  EF              Rx   d 8 C2 F2 00 7D 21 00 7D FF
 263.4494 2  1C4             Rx   d 7 00 00 00 00 B3 20 F2
 263.4495 3  1A1             Rx   d 5 DA CD 00 00 81
 263.4496 2  1A1             Rx   d 5 DA CD 00 00 81
 263.4498 2  1C5             Rx   d 7 00 00 00 00 B3 20 F2
 263.4500 3  254             Rx   d 8 FF 7F FF 7F FF 7F FF 7F
 263.4507 3  137             Rx   d 2 FD BC
 263.4517 3  197             Rx   d 4 8A 02 0E C0
 263.4540 3  2C4             Rx   d 8 4F 08 FF 64 72 64 01 F1
 263.4541 3  281             Rx   d 2 31 F3
 263.4547 2  E4              Rx   d 8 B3 FC 9B FF F2 8E FF F2
 263.4551 1  281             Rx   d 2 31 F3
 263.4571 3  36E             Rx   d 5 20 F7 FE FF 15
 263.4592 3  18D             Rx   d 7 FC 47 0A FE 07 00 7E
 263.4600 2  163             Rx   d 8 FF FF E5 24 FF FF FF FF
 263.4600 3  163             Rx   d 8 82 FD E5 24 E4 24 00 F0
 263.4602 2  302             Rx   d 7 FF FD AB 7E F1 FF FF
 263.4603 3  302             Rx   d 7 18 FD AB 7E F1 FF FF
 263.4607 3  137             Rx   d 2 FD BC
 263.4611 1  302             Rx   d 7 FF FF AB 7E FF FF FF
 263.4617 3  A5              Rx   d 8 70 F4 FC C7 7F 30 0C F1
 263.4620 3  8F              Rx   d 8 D4 13 FA 7C 52 00 15 10
 263.4621 2  A5              Rx   d 8 70 F4 FC C7 7F 30 0C F1
 263.4622 3  96              Rx   d 8 51 00 36 C7 01 FF FF FF
 263.4623 2  1BA             Rx   d 8 0F 00 00 44 2F F3 72 F0
 263.4626 2  96              Rx   d 8 51 00 36 C7 01 FF FF FF
 263.4631 1  1BA             Rx   d 8 0F 00 00 44 2F F3 72 F0
 263.4644 2  199             Rx   d 6 FF FC 67 7F FF AF
 263.4645 3  199             Rx   d 6 C4 FC 67 7F 1D A0
 263.4646 2  19A             Rx   d 6 FF FC 6D 7E FF 2F
 263.4647 3  19A             Rx   d 6 E3 FC 6D 7E 00 20
 263.4648 2  19F             Rx   d 6 FF FC 04 80 00 20
 263.4649 3  19F             Rx   d 6 59 FC 04 80 00 20
 263.4650 2  E4              Rx   d 8 EE FD 9B FF F2 8E FF F2
 263.4651 3  301             Rx   d 7 E2 FC D6 7E FF 7F 22
 263.4653 2  301             Rx   d 7 E2 FC D6 7E FF 7F 22
 263.4653 1  19A             Rx   d 6 E3 FC 6D 7E 00 20
 263.4657 3  F3              Rx   d 8 0A E4 04 C0 F0 FF FF FF
 263.4659 3  D9              Rx   d 8 C4 14 00 10 00 E0 7F C0
 263.4661 3  DC              Rx   d 6 A1 14 22 D0 07 FE
 263.4663 2  D9              Rx   d 8 C4 14 00 10 00 E0 7F C0
 263.4664 1  19F             Rx   d 6 59 FC 04 80 00 20
 263.4691 3  EF              Rx   d 8 9F F3 00 7D 21 00 7D FF
 263.4694 2  1C4             Rx   d 7 00 00 00 00 B3 20 F2
 263.4695 3  1A1             Rx   d 5 60 CE 00 00 81
 263.4696 2  1A1             Rx   d 5 60 CE 00 00 81
 263.4698 2  1C5             Rx   d 7 00 00 00 00 B3 20 F2
 263.4700 3  254             Rx   d 8 FF 7F FF 7F FF 7F FF 7F
 263.4707 1  1A1             Rx   d 5 60 CE 00 00 81
 263.4707 3  137             Rx   d 2 FD BC
 263.4725 1  F6              Rx   d 2 F3 F3
 263.4739 3  D7              Rx   d 2 33 FF
 263.4746 2  E4              Rx   d 8 09 FE 9B FF F2 8E FF F2
 263.4758 3  3FD             Rx   d 5 AB 03 20 FC FF
 263.4760 2  2BB             Rx   d 5 F3 F0 00 00 F2
 263.4761 3  2BB             Rx   d 5 F3 F0 00 00 F2
 263.4763 3  289             Rx   d 8 31 F0 E0 E0 E1 00 EC 01
 263.4768 1  2BB             Rx   d 5 F3 F0 00 00 F2
 263.4771 2  375             Rx   d 8 7F 7F 7E 7E F2 FF FF FF
 263.4771 3  375             Rx   d 8 7F 7F 7E 7E F2 FF FF FF
 263.4773 2  3A7             Rx   d 7 FF FF 00 00 13 11 FF
 263.4774 3  3A7             Rx   d 7 D3 F4 00 00 13 11 C0
 263.4775 3  3E6             Rx   d 2 82 FF
 263.4777 1  3E6             Rx   d 2 FF 00
 263.4792 3  18D             Rx   d 7 FC 47 0A FF 07 00 7E
 263.4800 2  302             Rx   d 7 FF F0 AB 7E F1 FF FF
 263.4810 3  2E0             Rx   d 6 62 F0 46 30 24 FF
 263.4811 2  1A0             Rx   d 8 00 80 0B 90 FF 00 F0 FF
 263.4815 3  137             Rx   d 2 FD BC
 263.4817 3  A5              Rx   d 8 3C F5 FC C7 7F 2E 0C F1
 263.4819 3  197             Rx   d 4 05 03 0E C0
 263.4821 2  A5              Rx   d 8 3C F5 FC C7 7F 2E 0C F1
 263.4828 1  A5              Rx   d 8 70 F4 FC C7 7F 30 0C F1
 263.4843 2  199             Rx   d 6 FF FE 80 7F FF AF
 263.4844 3  199             Rx   d 6 0F FE 80 7F 1D A0
 263.4845 2  19A             Rx   d 6 FF FE 9B 7E FF 2F
 263.4846 3  19A             Rx   d 6 90 FE 9B 7E 00 20
 263.4847 2  E4              Rx   d 8 08 F0 9B FF F2 8E FF F2
 263.4848 3  19F             Rx   d 6 5F FE 08 80 00 20
 263.4850 2  19F             Rx   d 6 FF FE 08 80 00 20
 263.4857 3  F3              Rx   d 8 57 E5 04 C0 F0 FF FF FF
 263.4860 3  D9              Rx   d 8 99 15 00 10 00 E0 7F C0
 263.4861 3  397             Rx   d 3 D2 D8 4A
 263.4863 2  D9              Rx   d 8 99 15 00 10 00 E0 7F C0
 263.4863 3  DC              Rx   d 6 CB 15 22 D0 07 FE
 263.4865 3  328             Rx   d 6 24 F1 55 00 98 10
 263.4868 2  328             Rx   d 6 24 F1 55 00 98 10
 263.4871 2  385             Rx   d 4 F0 F0 F1 00
 263.4872 3  1B3             Rx   d 8 FF 0F 00 F0 04 FF 80 39
 263.4873 2  422             Rx   d 4 24 12 82 0D
 263.4875 2  1B3             Rx   d 8 FF 0F 00 F0 04 FF 80 39
 263.4878 1  328             Rx   d 6 24 F1 55 00 98 10
 263.4892 3  EF              Rx   d 8 11 F4 00 7D 21 00 7D FF
 263.4894 2  1C4             Rx   d 7 00 00 00 00 B4 20 F2
 263.4895 3  1A1             Rx   d 5 95 C0 00 00 81
 263.4896 2  1A1             Rx   d 5 95 C0 00 00 81
 263.4898 2  1C5             Rx   d 7 00 00 00 00 B4 20 F2
 263.4900 3  173             Rx   d 8 F4 F8 00 02 20 00 F2 C0
 263.4901 2  173             Rx   d 8 F4 F8 00 02 20 00 F2 C0
 263.4902 3  254             Rx   d 8 FF 7F FF 7F FF 7F FF 7F
 263.4908 3  137             Rx   d 2 FD BC
 263.4913 3  8F              Rx   d 8 5A 14 FA 7C 52 00 15 10
 263.4918 3  96              Rx   d 8 51 00 36 C7 01 FF FF FF
 263.4921 2  96              Rx   d 8 51 00 36 C7 01 FF FF FF
 263.4940 2  257             Rx   d 8 1C 08 FF FF FF FF FF FF
 263.4946 2  E4              Rx   d 8 55 F1 9B FF F2 8E FF F2
 263.4970 3  2A7             Rx   d 5 8F F0 FE FF 14
 263.4992 3  18D             Rx   d 7 FC 47 0A FE 07 00 7E
 263.5000 2  302             Rx   d 7 FF F2 AB 7E F1 FF FF
 263.5000 3  302             Rx   d 7 DD F2 AB 7E F1 FF FF
 263.5015 3  137             Rx   d 2 FD BC
 263.5018 3  A5              Rx   d 8 DB F6 FC C7 7F 2E 0C F1
 263.5020 3  2FC             Rx   d 7 81 01 00 FF FF FF FF
 263.5021 2  A5              Rx   d 8 DB F6 FC C7 7F 2E 0C F1
 263.5022 3  189             Rx   d 6 93 F7 00 00 00 22
 263.5023 2  2FC             Rx   d 7 81 01 00 FF FF FF FF
 263.5024 3  512             Rx   d 8 00 00 00 00 FF FF 00 12
 263.5032 1  2FC             Rx   d 7 81 01 00 FF FF FF FF
 263.5043 2  199             Rx   d 6 FF F1 5E 7F FF AF
 263.5043 3  199             Rx   d 6 02 F1 5E 7F 1D A0
 263.5045 2  19A             Rx   d 6 FF F1 5E 7E FF 2F
 263.5045 3  19A             Rx   d 6 9E F1 5E 7E 00 20
 263.5047 2  E4              Rx   d 8 B2 F2 9B FF F2 8E FF F2
 263.5047 3  19F             Rx   d 6 E2 F1 F1 7F 00 20
 263.5049 2  19F             Rx   d 6 FF F1 F1 7F 00 20
 263.5057 3  F3              Rx   d 8 B0 E6 04 C0 F0 FF FF FF
 263.5060 3  D9              Rx   d 8 7E 16 00 10 00 E0 7F C0
 263.5061 2  1A6             Rx   d 8 00 00 00 00 00 00 80 F2
 263.5062 3  DC              Rx   d 6 75 16 22 D0 07 FE
 263.5063 2  D9              Rx   d 8 7E 16 00 10 00 E0 7F C0
 263.5082 1  2BF             Rx   d 3 FF FF FF
 263.5091 3  EF              Rx   d 8 4C F5 00 7D 21 00 7D FF
 263.5094 2  1C4             Rx   d 7 00 00 00 00 B4 20 F2
 263.5095 3  1A1             Rx   d 5 08 C1 00 00 81
 263.5096 2  1A1             Rx   d 5 08 C1 00 00 81
 263.5098 2  1C5             Rx   d 7 00 00 00 00 B4 20 F2
 263.5100 3  254             Rx   d 8 FF 7F FF 7F FF 7F FF 7F
 263.5107 3  137             Rx   d 2 FD BC
 263.5117 3  197             Rx   d 4 8F 04 0E C0
 263.5121 2  1BA             Rx   d 8 0E 00 00 76 2F F3 72 F0
 263.5123 2  1A5             Rx   d 5 53 F9 E3 21 A4
 263.5130 1  1BA             Rx   d 8 0E 00 00 76 2F F3 72 F0
 263.5144 3  1E1             Rx   d 6 28 F1 01 FF FF FF
 263.5145 2  E4              Rx   d 8 EF F3 9B FF F2 8E FF F2
 263.5161 2  130             Rx   d 5 05 F0 FC FF FF
 263.5192 3  18D             Rx   d 7 FC 47 0A FE 07 00 7E
 263.5199 2  302             Rx   d 7 FF F4 AB 7E F1 FF FF
 263.5207 3  137             Rx   d 2 FD BC
 263.5209 3  A5              Rx   d 8 97 F7 FC C7 7F 30 0C F1
 263.5211 3  8F              Rx   d 8 07 15 FA 7C 52 00 15 10
 263.5212 2  A5              Rx   d 8 97 F7 FC C7 7F 30 0C F1
 263.5226 3  96              Rx   d 8 51 00 36 C7 01 FF FF FF
 263.5228 3  314             Rx   d 3 FF 3F FF
 263.5230 2  96              Rx   d 8 51 00 36 C7 01 FF FF FF
 263.5237 1  314             Rx   d 3 FF 3F FF
 263.5243 2  199             Rx   d 6 FF F3 72 7F FF AF
 263.5243 3  199             Rx   d 6 4E F3 72 7F 1D A0
 263.5245 2  19A             Rx   d 6 FF F3 91 7E FF 2F
 263.5245 3  19A             Rx   d 6 83 F3 91 7E 00 20
 263.5247 2  E4              Rx   d 8 61 F4 9B FF F2 8E FF F2
 263.5247 3  19F             Rx   d 6 78 F3 F5 7F 00 20
 263.5249 2  19F             Rx   d 6 FF F3 F5 7F 00 20
 263.5250 3  D9              Rx   d 8 23 17 00 10 00 E0 7F C0
 263.5252 3  F3              Rx   d 8 ED E7 04 C0 F0 FF FF FF
 263.5253 2  D9              Rx   d 8 23 17 00 10 00 E0 7F C0
 263.5254 3  DC              Rx   d 6 1F 17 22 D0 07 FE
 263.5292 3  EF              Rx   d 8 AB F6 00 7D 21 00 7D FF
 263.5294 2  1C4             Rx   d 7 00 00 00 00 B4 20 F2
 263.5295 3  1A1             Rx   d 5 B2 C2 00 00 81
 263.5296 2  1A1             Rx   d 5 B2 C2 00 00 81
 263.5298 2  1C5             Rx   d 7 00 00 00 00 B4 20 F2
 263.5299 3  254             Rx   d 8 FF 7F FF 7F FF 7F FF 7F
 263.5307 3  137             Rx   d 2 FD BC
 263.5345 2  E4              Rx   d 8 3C F5 9B FF F2 8E FF F2
 263.5349 3  19B             Rx   d 8 AE 47 40 55 FD FF FF FF
 263.5352 1  2C4             Rx   d 8 4F 08 FF 64 72 64 01 F1
 263.5353 2  19B             Rx   d 8 AE 47 40 55 FD FF FF FF
 263.5367 3  C0              Rx   d 2 F7 FF
 263.5392 3  18D             Rx   d 7 FB 47 0A FF 07 00 7E
 263.5399 2  302             Rx   d 7 FF F6 AB 7E F1 FF FF
 263.5399 3  302             Rx   d 7 D8 F6 AB 7E F1 FF FF
 263.5407 3  137             Rx   d 2 FD BC
 263.5410 3  A5              Rx   d 8 C8 F8 FC C7 7F 32 0C F1
 263.5413 2  A5              Rx   d 8 C8 F8 FC C7 7F 32 0C F1
 263.5417 3  197             Rx   d 4 00 05 0E C0
 263.5439 2  257             Rx   d 8 41 09 FF FF FF FF FF FF
 263.5443 2  199             Rx   d 6 FF F5 53 7F FF AF
 263.5443 3  199             Rx   d 6 F8 F5 53 7F 1D A0
 263.5445 2  19A             Rx   d 6 FF F5 59 7E FF 2F
 263.5445 3  12F             Rx   d 8 98 77 8A DD F1 05 30 86
 263.5447 2  E4              Rx   d 8 DB F6 9B FF F2 8E FF F2
 263.5447 3  19A             Rx   d 6 DF F5 59 7E 00 20
 263.5449 2  19F             Rx   d 6 FF F5 FB 7F 00 20
 263.5450 3  D9              Rx   d 8 7F 18 00 10 00 E0 7F C0
 263.5452 3  F3              Rx   d 8 B1 E8 04 C0 F0 FF FF FF
 263.5453 2  D9              Rx   d 8 7F 18 00 10 00 E0 7F C0
 263.5454 3  DC              Rx   d 6 63 18 22 D0 07 FE
 263.5456 3  19F             Rx   d 6 EC F5 FB 7F 00 20
 263.5459 2  12F             Rx   d 8 AD 7C 8A DD F1 05 30 86
 263.5468 1  12F             Rx   d 8 AD 7C 8A DD F1 05 30 86
 263.5472 3  2C5             Rx   d 7 75 F1 00 30 C6 70 C8
 263.5491 3  EF              Rx   d 8 F6 F7 00 7D 21 00 7D FF
 263.5494 2  1C4             Rx   d 7 00 00 00 00 B4 20 F2
 263.5495 3  1A1             Rx   d 5 2F C3 00 00 81
 263.5496 2  1A1             Rx   d 5 2F C3 00 00 81
 263.5498 2  1C5             Rx   d 7 00 00 00 00 B4 20 F2
 263.5499 3  254             Rx   d 8 FF 7F FF 7F FF 7F FF 7F
 263.5507 3  137             Rx   d 2 FD BC
 263.5510 3  8F              Rx   d 8 E0 16 FA 7C 52 00 15 10
 263.5512 3  560             Rx   d 8 00 00 00 00 57 2F 00 60
 263.5518 3  96              Rx   d 8 51 00 36 C7 01 FF FF FF
 263.5521 2  96              Rx   d 8 51 00 36 C7 01 FF FF FF
 263.5538 3  1B9             Rx   d 4 3C FF C8 FF
 263.5539 3  281             Rx   d 2 31 F3
 263.5541 3  2C4             Rx   d 8 68 08 FF 64 72 64 01 F1
 263.5546 2  E4              Rx   d 8 86 F7 9B FF F2 8E FF F2
 263.5551 1  1B9             Rx   d 4 3C FF C8 FF
 263.5557 1  281             Rx   d 2 31 F3
 263.5592 3  18D             Rx   d 7 FC 47 0A FF 07 00 7E
 263.5599 2  163             Rx   d 8 FF FF E5 24 FF FF FF FF
 263.5599 3  163             Rx   d 8 B6 F8 E5 24 E4 24 00 F0
 263.5601 2  302             Rx   d 7 FF F8 AB 7E F1 FF FF
 263.5607 3  137             Rx   d 2 FD BC
 263.5609 3  A5              Rx   d 8 59 F9 FB C7 7F 30 0C F1
 263.5612 1  5E7             Rx   d 8 99 01 1D 08 06 FF FF FF
 263.5613 2  A5              Rx   d 8 59 F9 FB C7 7F 30 0C F1
 263.5615 2  5E7             Rx   d 8 99 01 1D 08 06 FF FF FF
 263.5642 2  199             Rx   d 6 FF F7 6B 7F FF AF
 263.5643 3  199             Rx   d 6 DF F7 6B 7F 1D A0
 263.5644 2  19A             Rx   d 6 FF F7 8A 7E FF 2F
 263.5645 3  19A             Rx   d 6 35 F7 8A 7E 00 20
 263.5646 2  E4              Rx   d 8 DA F8 9B FF F2 8E FF F2
 263.5647 3  19F             Rx   d 6 51 F7 FD 7F 00 20
 263.5648 2  19F             Rx   d 6 FF F7 FD 7F 00 20
 263.5650 3  F3              Rx   d 8 EC E9 04 C0 F0 FF FF FF
 263.5651 1  19A             Rx   d 6 35 F7 8A 7E 00 20
 263.5652 3  D9              Rx   d 8 22 19 00 10 00 E0 7F C0
 263.5654 3  DC              Rx   d 6 09 19 22 D0 07 FE
 263.5655 2  D9              Rx   d 8 22 19 00 10 00 E0 7F C0
 263.5662 1  19F             Rx   d 6 51 F7 FD 7F 00 20
 263.5692 3  EF              Rx   d 8 AA F8 00 7D 21 00 7D FF
 263.5694 2  1C4             Rx   d 7 00 00 00 00 B4 20 F2
 263.5695 3  1A1             Rx   d 5 DB C4 00 00 81
 263.5696 2  1A1             Rx   d 5 DB C4 00 00 81
 263.5698 2  1C5             Rx   d 7 00 00 00 00 B4 20 F2
 263.5699 3  254             Rx   d 8 FF 7F FF 7F FF 7F FF 7F
 263.5706 1  1A1             Rx   d 5 DB C4 00 00 81
 263.5709 3  137             Rx   d 2 FD BC
 263.5717 3  197             Rx   d 4 8C 06 0E C0
 263.5723 2  2EB             Rx   d 8 D1 F7 12 13 11 51 FF FF
 263.5725 1  F6              Rx   d 2 F3 F3
 263.5744 2  E4              Rx   d 8 87 F9 9B FF F2 8E FF F2
 263.5758 3  3FD             Rx   d 5 5F 04 20 FC FF
 263.5760 2  2BB             Rx   d 5 6E F1 00 00 F2
 263.5760 3  2BB             Rx   d 5 6E F1 00 00 F2
 263.5763 3  289             Rx   d 8 6C F1 E0 E0 E1 00 EC 01
 263.5768 1  2BB             Rx   d 5 6E F1 00 00 F2
 263.5770 3  2A7             Rx   d 5 12 F1 FE FF 14
 263.5793 3  18D             Rx   d 7 FC 47 0A FE 07 00 7E
 263.5799 2  302             Rx   d 7 FF FA AB 7E F1 FF FF
 263.5799 3  302             Rx   d 7 D7 FA AB 7E F1 FF FF
 263.5807 3  137             Rx   d 2 FD BC
 263.5810 3  A5              Rx   d 8 AF FA FB C7 7F 2E 0C F1
 263.5811 2  1A0             Rx   d 8 00 80 09 50 FF FF FF FF
 263.5812 3  8F              Rx   d 8 BD 17 FA 7C 52 00 15 10
 263.5814 2  A5              Rx   d 8 AF FA FB C7 7F 2E 0C F1
 263.5814 3  2E0             Rx   d 6 08 F1 46 30 24 FF
 263.5818 3  96              Rx   d 8 51 00 36 C7 01 FF FF FF
 263.5819 3  2A5             Rx   d 2 FF FF
 263.5821 3  346             Rx   d 4 37 F6 70 FF
 263.5821 2  96              Rx   d 8 51 00 36 C7 01 FF FF FF
 263.5827 1  A5              Rx   d 8 AF FA FB C7 7F 2E 0C F1
 263.5842 2  199             Rx   d 6 FF F9 6B 7F FF AF
 263.5843 3  199             Rx   d 6 C9 F9 6B 7F 1D A0
 263.5844 2  19A             Rx   d 6 FF F9 5F 7E FF 2F
 263.5845 3  19A             Rx   d 6 74 F9 5F 7E 00 20
 263.5846 2  E4              Rx   d 8 60 FA 9B FF F2 8E FF F2
 263.5847 3  19F             Rx   d 6 08 F9 F0 7F 00 20
 263.5849 2  19F             Rx   d 6 FF F9 F0 7F 00 20
 263.5849 3  297             Rx   d 7 0D E4 F0 E0 F0 F0 FC
 263.5851 2  2E5             Rx   d 8 DF F7 11 13 11 1F 10 11
 263.5851 3  D9              Rx   d 8 C5 1A 00 10 00 E0 7F C0
 263.5853 2  297             Rx   d 7 0D E4 F0 E0 F0 F0 FC
 263.5854 3  F3              Rx   d 8 0B EA 04 C0 F0 FF FF FF
 263.5855 2  D9              Rx   d 8 C5 1A 00 10 00 E0 7F C0
 263.5856 3  DC              Rx   d 6 B7 1A 22 D0 07 FE
 263.5857 2  349             Rx   d 5 FE 01 F4 01 00
 263.5860 3  349             Rx   d 5 FE 01 F4 01 00
 263.5861 1  297             Rx   d 7 0D E4 F0 E0 F0 F0 FC
 263.5872 3  1B3             Rx   d 8 FF 0F 00 F1 04 FF 80 3A
 263.5875 2  1B3             Rx   d 8 FF 0F 00 F1 04 FF 80 3A
 263.5885 3  335             Rx   d 8 00 58 66 42 27 7D BC 54
 263.5891 3  EF              Rx   d 8 F7 F9 00 7D 21 00 7D FF
 263.5894 2  1C4             Rx   d 7 00 00 00 00 B5 20 F2
 263.5895 3  1A1             Rx   d 5 46 C5 00 00 81
 263.5896 2  1A1             Rx   d 5 46 C5 00 00 81
 263.5898 2  1C5             Rx   d 7 00 00 00 00 B5 20 F2
 263.5899 3  173             Rx   d 8 C1 F3 00 02 20 00 F2 C0
 263.5901 2  173             Rx   d 8 C1 F3 00 02 20 00 F2 C0
 263.5902 3  254             Rx   d 8 FF 7F FF 7F FF 7F FF 7F
 263.5908 3  137             Rx   d 2 FD BD
 263.5909 1  173             Rx   d 8 C1 F3 00 02 20 00 F2 C0
 263.5911 2  18A             Rx   d 7 52 F6 00 00 00 7F F7
 263.5939 2  257             Rx   d 8 A6 0A FF FF FF FF FF FF
 263.5945 2  E4              Rx   d 8 3D FB 9B FF F2 8E FF F2
 263.5950 2  3AF             Rx   d 4 B2 CB 80 E5
 263.5958 1  3AF             Rx   d 4 B2 CB 80 E5
 263.5971 3  2CA             Rx   d 2 8A 91
 263.5973 2  2CA             Rx   d 2 8A 91
 263.5978 1  2CA             Rx   d 2 8A 91
 263.5990 1  567             Rx   d 8 00 00 00 00 2D 67 00 67
 263.5993 3  18D             Rx   d 7 FC 47 0A FE 07 00 7E
 263.5998 2  302             Rx   d 7 FF FC AB 7E F1 FF FF
 263.6007 3  137             Rx   d 2 FD BD
 263.6009 3  A5              Rx   d 8 3D FB FC C7 7F 2E 0C F1
 263.6013 2  A5              Rx   d 8 3D FB FC C7 7F 2E 0C F1
 263.6017 3  197             Rx   d 4 03 07 0E C0
 263.6020 3  347             Rx   d 3 FF F6 70
 263.6026 3  2FC             Rx   d 7 81 01 00 FF FF FF FF
 263.6030 2  2FC             Rx   d 7 81 01 00 FF FF FF FF
 263.6039 1  2FC             Rx   d 7 81 01 00 FF FF FF FF
 263.6042 2  199             Rx   d 6 FF FB 66 7F FF AF
 263.6042 3  199             Rx   d 6 52 FB 66 7F 1D A0
 263.6044 2  19A             Rx   d 6 FF FB 87 7E FF 2F
 263.6044 3  19A             Rx   d 6 B8 FB 87 7E 00 20
 263.6046 2  E4              Rx   d 8 B3 FC 9B FF F2 8E FF F2
 263.6046 3  19F             Rx   d 6 40 FB F8 7F 00 20
 263.6048 2  19F             Rx   d 6 FF FB F8 7F 00 20
 263.6050 3  F3              Rx   d 8 56 EB 04 C0 F0 FF FF FF
 263.6053 3  D9              Rx   d 8 98 1B 00 10 00 E0 7F C0
 263.6054 3  397             Rx   d 3 D2 D8 4B
 263.6056 2  D9              Rx   d 8 98 1B 00 10 00 E0 7F C0
 263.6056 3  DC              Rx   d 6 DD 1B 22 D0 07 FE
 263.6059 3  598             Rx   d 8 13 FF 11 18 FF FF FF FF
 263.6060 2  1A6             Rx   d 8 00 00 00 00 00 00 10 F4
 263.6065 3  518             Rx   d 8 00 00 00 00 B0 30 00 18
 263.6081 1  2BF             Rx   d 3 FF FF FF
 263.6092 3  EF              Rx   d 8 10 FA 00 7D 21 00 7D FF
 263.6094 2  1C4             Rx   d 7 00 00 00 00 B5 20 F2
 263.6095 3  1A1             Rx   d 5 FC C6 00 00 81
 263.6096 2  1A1             Rx   d 5 FC C6 00 00 81
 263.6098 3  517             Rx   d 8 00 00 00 00 12 61 00 17
 263.6098 2  1C5             Rx   d 7 00 00 00 00 B5 20 F2
 263.6100 3  254             Rx   d 8 FF 7F FF 7F FF 7F FF 7F
 263.6108 3  137             Rx   d 2 FD BD
 263.6110 3  8F              Rx   d 8 E1 18 FA 7C 52 00 15 10
 263.6119 3  96              Rx   d 8 51 00 36 C7 01 FF FF FF
 263.6122 2  96              Rx   d 8 51 00 36 C7 01 FF FF FF
 263.6144 2  E4              Rx   d 8 EE FD 9B FF F2 8E FF F2
 263.6159 2  130             Rx   d 5 05 F0 FC FF FF
 263.6170 3  36E             Rx   d 5 48 F8 FE FF 15
 263.6192 3  18D             Rx   d 7 FB 47 0A FE 07 00 7E
 263.6198 2  302             Rx   d 7 FF FE AB 7E F1 FF FF
 263.6199 3  302             Rx   d 7 D2 FE AB 7E F1 FF FF
 263.6207 3  137             Rx   d 2 FD BD
 263.6209 3  A5              Rx   d 8 B3 FC FC C7 7F 2E 0C F1
 263.6212 2  A5              Rx   d 8 B3 FC FC C7 7F 2E 0C F1
 263.6241 2  199             Rx   d 6 FF FD 69 7F FF AF
 263.6242 3  199             Rx   d 6 5B FD 69 7F 1D A0
 263.6243 2  19A             Rx   d 6 FF FD 65 7E FF 2F
 263.6244 3  19A             Rx   d 6 15 FD 65 7E 00 20
 263.6246 2  E4              Rx   d 8 09 FE 9B FF F2 8E FF F2
 263.6246 3  19F             Rx   d 6 14 FD 06 80 00 20
 263.6248 2  19F             Rx   d 6 FF FD 06 80 00 20
 263.6249 3  F3              Rx   d 8 D8 EC 04 C0 F0 FF FF FF
 263.6251 3  D9              Rx   d 8 16 1C 00 10 00 E0 7F C0
 263.6253 3  DC              Rx   d 6 D6 1C 22 D0 07 FE
 263.6254 2  D9              Rx   d 8 16 1C 00 10 00 E0 7F C0
 263.6255 3  5E0             Rx   d 8 8C 00 00 91 00 00 00 FF
 263.6268 1  5E0             Rx   d 8 8C 00 00 91 00 00 00 FF
 263.6291 3  EF              Rx   d 8 4D FB 00 7D 21 00 7D FF
 263.6294 2  1C4             Rx   d 7 00 00 00 00 B5 20 F2
 263.6295 3  1A1             Rx   d 5 61 C7 00 00 81
 263.6296 2  1A1             Rx   d 5 61 C7 00 00 81
 263.6298 2  1C5             Rx   d 7 00 00 00 00 B5 20 F2
 263.6299 3  254             Rx   d 8 FF 7F FF 7F FF 7F FF 7F
 263.6307 3  137             Rx   d 2 FD BD
 263.6317 3  197             Rx   d 4 85 08 0E C0
 263.6344 2  E4              Rx   d 8 08 F0 9B FF F2 8E FF F2
 263.6392 3  18D             Rx   d 7 FC 47 0A FF 07 00 7E
 263.6398 2  302             Rx   d 7 FF F1 AB 7E F1 FF FF
 263.6407 3  137             Rx   d 2 FD BD
 263.6410 3  A5              Rx   d 8 03 FD FC D7 7F 2C 0C F1
 263.6412 3  8F              Rx   d 8 BC 19 FA 7C 52 00 15 10
 263.6413 2  A5              Rx   d 8 03 FD FC D7 7F 2C 0C F1
 263.6428 3  96              Rx   d 8 51 00 36 C7 01 FF FF FF
 263.6432 2  96              Rx   d 8 51 00 36 C7 01 FF FF FF
 263.6438 2  257             Rx   d 8 FB 0B FF FF FF FF FF FF
 263.6442 2  199             Rx   d 6 FF F0 67 7F FF AF
 263.6442 3  199             Rx   d 6 06 F0 67 7F 1D A0
 263.6444 2  19A             Rx   d 6 FF F0 92 7E FF 2F
 263.6445 3  12F             Rx   d 8 C4 78 8A DD F1 05 30 86
 263.6446 2  E4              Rx   d 8 55 F1 9B FF F2 8E FF F2
 263.6447 3  19A             Rx   d 6 87 F0 92 7E 00 20
 263.6448 2  19F             Rx   d 6 FF F0 04 80 00 20
 263.6449 3  19F             Rx   d 6 9B F0 04 80 00 20
 263.6453 3  F3              Rx   d 8 85 ED 04 C0 F0 FF FF FF
 263.6455 3  D9              Rx   d 8 4B 1D 00 10 00 E0 7F C0
 263.6457 3  DC              Rx   d 6 BC 1D 22 D0 07 FE
 263.6459 2  12F             Rx   d 8 F0 7D 8A DD F1 05 30 86
 263.6461 2  D9              Rx   d 8 4B 1D 00 10 00 E0 7F C0
 263.6469 1  12F             Rx   d 8 F0 7D 8A DD F1 05 30 86
 263.6472 3  2C5             Rx   d 7 BF F2 00 30 C6 70 C8
 263.6491 3  EF              Rx   d 8 C3 FC 00 7D 21 00 7D FF
 263.6494 2  1C4             Rx   d 7 00 00 00 00 B5 20 F2
 263.6495 3  1A1             Rx   d 5 09 C8 00 00 81
 263.6496 2  1A1             Rx   d 5 09 C8 00 00 81
 263.6498 2  1C5             Rx   d 7 00 00 00 00 B5 20 F2
 263.6499 3  254             Rx   d 8 FF 7F FF 7F FF 7F FF 7F
 263.6508 3  137             Rx   d 2 FD BD
 263.6543 2  E4              Rx   d 8 B2 F2 9B FF F2 8E FF F2
 263.6550 3  2C4             Rx   d 8 82 08 FF 64 72 64 01 F1
 263.6552 3  281             Rx   d 2 2F F3
 263.6559 1  281             Rx   d 2 2F F3
 263.6570 3  2A7             Rx   d 5 A8 F2 FE FF 14
 263.6592 3  18D             Rx   d 7 FC 47 0A FE 07 00 7E
 263.6598 2  163             Rx   d 8 FF FF E5 24 FF FF FF FF
 263.6599 3  163             Rx   d 8 83 F3 E5 24 E4 24 00 F0
 263.6601 2  302             Rx   d 7 FF F3 AB 7E F1 FF FF
 263.6601 3  302             Rx   d 7 9B F3 AB 7E F1 FF FF
 263.6607 3  137             Rx   d 2 FD BD
 263.6608 1  302             Rx   d 7 FF FF AB 7E FF FF FF
 263.6609 3  A5              Rx   d 8 E1 FE FC D7 7F 2A 0C F1
 263.6613 2  A5              Rx   d 8 E1 FE FC D7 7F 2A 0C F1
 263.6617 3  197             Rx   d 4 0A 09 0E C0
 263.6622 2  1BA             Rx   d 8 10 00 00 76 2F F3 72 F0
 263.6631 1  1BA             Rx   d 8 10 00 00 76 2F F3 72 F0
 263.6641 2  199             Rx   d 6 FF F2 6B 7F FF AF
 263.6642 3  199             Rx   d 6 00 F2 6B 7F 1D A0
 263.6643 2  19A             Rx   d 6 FF F2 6C 7E FF 2F
 263.6644 3  19A             Rx   d 6 68 F2 6C 7E 00 20
 263.6645 2  E4              Rx   d 8 EF F3 9B FF F2 8E FF F2
 263.6646 3  19F             Rx   d 6 00 F2 09 80 00 20
 263.6647 2  19F             Rx   d 6 FF F2 09 80 00 20
 263.6648 3  301             Rx   d 7 61 F2 D6 7E FF 7F 22
 263.6650 2  301             Rx   d 7 61 F2 D6 7E FF 7F 22
 263.6650 3  D9              Rx   d 8 AC 1E 00 10 00 E0 7F C0
 263.6650 1  19A             Rx   d 6 68 F2 6C 7E 00 20
 263.6653 3  F3              Rx   d 8 62 EE 04 C0 F0 FF FF FF
 263.6654 2  D9              Rx   d 8 AC 1E 00 10 00 E0 7F C0
 263.6655 3  DC              Rx   d 6 02 1E 22 D0 07 FE
 263.6657 3  30B             Rx   d 8 4A 59 02 C0 30 FF FF FF
 263.6661 2  30B             Rx   d 8 4A 59 02 C0 30 FF FF FF
 263.6661 1  19F             Rx   d 6 00 F2 09 80 00 20
 263.6673 1  30B             Rx   d 8 4A 59 02 C0 30 FF FF FF
 263.6691 3  EF              Rx   d 8 9E FD 00 7D 21 00 7D FF
 263.6694 2  1C4             Rx   d 7 00 00 00 00 B5 20 F2
 263.6695 3  1A1             Rx   d 5 94 C9 00 00 81
 263.6696 2  1A1             Rx   d 5 94 C9 00 00 81
 263.6698 2  1C5             Rx   d 7 00 00 00 00 B5 20 F2
 263.6699 3  254             Rx   d 8 FF 7F FF 7F FF 7F FF 7F
 263.6705 1  1A1             Rx   d 5 94 C9 00 00 81
 263.6708 3  137             Rx   d 2 FD BD
 263.6710 3  8F              Rx   d 8 5B 1A FA 7C 52 00 15 10
 263.6718 3  96              Rx   d 8 51 00 36 C7 01 FF FF FF
 263.6721 2  96              Rx   d 8 51 00 36 C7 01 FF FF FF
 263.6725 1  F6              Rx   d 2 F3 F3
 263.6738 3  D7              Rx   d 2 34 FF
 263.6743 2  E4              Rx   d 8 61 F4 9B FF F2 8E FF F2
 263.6759 3  3FD             Rx   d 5 C2 05 20 FC FF
 263.6760 2  2BB             Rx   d 5 D4 F2 00 00 F2
 263.6760 3  2BB             Rx   d 5 D4 F2 00 00 F2
 263.6763 3  289             Rx   d 8 8B F2 E0 E0 E1 00 EC 01
 263.6768 1  2BB             Rx   d 5 D4 F2 00 00 F2
 263.6792 3  18D             Rx   d 7 FC 47 0A FF 07 00 7E
 263.6798 2  302             Rx   d 7 FF F5 AB 7E F1 FF FF
 263.6807 3  137             Rx   d 2 FD BD
 263.6810 3  A5              Rx   d 8 A3 F0 FD D7 7F 2C 0C F1
 263.6811 2  1A0             Rx   d 8 00 80 0A 80 FF 00 F0 FF
 263.6811 3  2E0             Rx   d 6 B6 F2 46 30 24 FF
 263.6813 2  A5              Rx   d 8 A3 F0 FD D7 7F 2C 0C F1
 263.6822 3  314             Rx   d 3 FF 3F FF
 263.6826 1  A5              Rx   d 8 A3 F0 FD D7 7F 2C 0C F1
 263.6834 1  314             Rx   d 3 FF 3F FF
 263.6841 2  199             Rx   d 6 FF F4 77 7F FF AF
 263.6841 3  199             Rx   d 6 96 F4 77 7F 1D A0
 263.6843 2  19A             Rx   d 6 FF F4 84 7E FF 2F
 263.6843 3  19A             Rx   d 6 7E F4 84 7E 00 20
 263.6845 2  E4              Rx   d 8 3C F5 9B FF F2 8E FF F2
 263.6845 3  19F             Rx   d 6 FC F4 08 80 00 20
 263.6847 2  19F             Rx   d 6 FF F4 08 80 00 20
 263.6853 3  F3              Rx   d 8 63 E0 04 C0 F0 FF FF FF
 263.6855 3  D9              Rx   d 8 AD 10 00 10 00 E0 7F C0
 263.6857 3  397             Rx   d 3 D2 D8 4C
 263.6859 3  DC              Rx   d 6 14 10 22 D0 07 FE
 263.6859 2  D9              Rx   d 8 AD 10 00 10 00 E0 7F C0
 263.6872 3  1B3             Rx   d 8 FF 0F 00 F2 04 FF 80 3B
 263.6875 2  1B3             Rx   d 8 FF 0F 00 F2 04 FF 80 3B
 263.6891 3  EF              Rx   d 8 79 FE 00 7D 21 00 7D FF
 263.6894 2  1C4             Rx   d 7 00 00 00 00 B6 20 F2
 263.6895 3  1A1             Rx   d 5 2E CA 00 00 81
 263.6896 2  1A1             Rx   d 5 2E CA 00 00 81
 263.6898 2  1C5             Rx   d 7 00 00 00 00 B6 20 F2
 263.6899 3  173             Rx   d 8 C0 FD 00 02 20 00 F2 C0
 263.6900 2  173             Rx   d 8 C0 FD 00 02 20 00 F2 C0
 263.6901 3  254             Rx   d 8 FF 7F FF 7F FF 7F FF 7F
 263.6908 3  137             Rx   d 2 FD BD
 263.6917 3  197             Rx   d 4 86 0A 0E C0
 263.6938 2  257             Rx   d 8 75 0C FF FF FF FF FF FF
 263.6944 2  E4              Rx   d 8 DB F6 9B FF F2 8E FF F2
 263.6992 3  18D             Rx   d 7 FC 47 0A FE 07 00 7E
 263.6997 2  302             Rx   d 7 FF F7 AB 7E F1 FF FF
 263.6998 3  302             Rx   d 7 9E F7 AB 7E F1 FF FF
 263.7007 3  137             Rx   d 2 FD BD
 263.7009 3  A5              Rx   d 8 02 F1 FD C7 7F 30 0C F1
 263.7012 3  8F              Rx   d 8 06 1B FA 7C 52 00 15 10
 263.7013 2  A5              Rx   d 8 02 F1 FD C7 7F 30 0C F1
 263.7018 3  96              Rx   d 8 51 00 36 C7 01 FF FF FF
 263.7020 3  2FC             Rx   d 7 81 01 00 FF FF FF FF
 263.7022 2  96              Rx   d 8 51 00 36 C7 01 FF FF FF
 263.7023 3  5B0             Rx   d 8 13 FF C0 30 FF FF FF FF
 263.7024 2  2FC             Rx   d 7 81 01 00 FF FF FF FF
 263.7025 3  189             Rx   d 6 EF F8 00 00 00 22
 263.7033 1  2FC             Rx   d 7 81 01 00 FF FF FF FF
 263.7041 2  199             Rx   d 6 FF F6 7C 7F FF AF
 263.7041 3  199             Rx   d 6 64 F6 7C 7F 1D A0
 263.7043 2  19A             Rx   d 6 FF F6 6C 7E FF 2F
 263.7043 3  19A             Rx   d 6 DD F6 6C 7E 00 20
 263.7045 2  E4              Rx   d 8 86 F7 9B FF F2 8E FF F2
 263.7045 3  19F             Rx   d 6 83 F6 EC 7F 00 20
 263.7047 2  19F             Rx   d 6 FF F6 EC 7F 00 20
 263.7049 3  F3              Rx   d 8 3E E1 04 C0 F0 FF FF FF
 263.7051 3  D9              Rx   d 8 F0 11 00 10 00 E0 7F C0
 263.7053 3  DC              Rx   d 6 7E 11 22 D0 07 FE
 263.7054 2  D9              Rx   d 8 F0 11 00 10 00 E0 7F C0
 263.7060 2  1A6             Rx   d 8 00 00 00 00 00 00 A0 F5
 263.7081 1  2BF             Rx   d 3 FF FF FF
 263.7091 3  EF              Rx   d 8 78 F0 00 7D 21 00 7D FF
 263.7094 2  1C4             Rx   d 7 00 00 00 00 B6 20 F2
 263.7095 3  1A1             Rx   d 5 B3 CB 00 00 81
 263.7096 2  1A1             Rx   d 5 B3 CB 00 00 81
 263.7098 2  1C5             Rx   d 7 00 00 00 00 B6 20 F2
 263.7098 3  254             Rx   d 8 FF 7F FF 7F FF 7F FF 7F
 263.7115 3  137             Rx   d 2 FD BD
 263.7120 2  1BA             Rx   d 8 11 00 00 76 2F F3 72 F0
 263.7130 1  1BA             Rx   d 8 11 00 00 76 2F F3 72 F0
 263.7142 2  E4              Rx   d 8 DA F8 9B FF F2 8E FF F2
 263.7143 3  1E1             Rx   d 6 96 F2 01 FF FF FF
 263.7158 2  130             Rx   d 5 05 F0 FC FF FF
 263.7193 3  18D             Rx   d 7 FB 47 0A FE 07 00 7E
 263.7197 2  302             Rx   d 7 FF F9 AB 7E F1 FF FF
 263.7207 3  137             Rx   d 2 FD BD
 263.7209 3  A5              Rx   d 8 5C F2 FC D7 7F 2E 0C F1
 263.7212 2  A5              Rx   d 8 5C F2 FC D7 7F 2E 0C F1
 263.7217 3  197             Rx   d 4 09 0B 0E C0
 263.7240 2  199             Rx   d 6 FF F8 6C 7F FF AF
 263.7241 3  199             Rx   d 6 57 F8 6C 7F 1D A0
 263.7242 2  19A             Rx   d 6 FF F8 8C 7E FF 2F
 263.7243 3  19A             Rx   d 6 20 F8 8C 7E 00 20
 263.7245 2  E4              Rx   d 8 87 F9 9B FF F2 8E FF F2
 263.7245 3  19F             Rx   d 6 3E F8 08 80 00 20
 263.7247 2  19F             Rx   d 6 FF F8 08 80 00 20
 263.7252 3  F3              Rx   d 8 D9 E2 04 C0 F0 FF FF FF
 263.7255 3  D9              Rx   d 8 17 12 00 10 00 E0 7F C0
 263.7257 3  DC              Rx   d 6 C0 12 22 D0 07 FE
 263.7258 2  D9              Rx   d 8 17 12 00 10 00 E0 7F C0
 263.7291 3  EF              Rx   d 8 25 F1 00 7D 21 00 7D FF
 263.7294 2  1C4             Rx   d 7 00 00 00 00 B6 20 F2
 263.7295 3  1A1             Rx   d 5 47 CC 00 00 81
 263.7296 2  1A1             Rx   d 5 47 CC 00 00 81
 263.7298 2  1C5             Rx   d 7 00 00 00 00 B6 20 F2
 263.7299 3  254             Rx   d 8 FF 7F FF 7F FF 7F FF 7F
 263.7316 3  137             Rx   d 2 FD BD
 263.7318 3  96              Rx   d 8 51 00 36 C7 01 FF FF FF
 263.7321 3  8F              Rx   d 8 88 1C FA 7C 52 00 15 10
 263.7321 2  96              Rx   d 8 51 00 36 C7 01 FF FF FF
 263.7342 2  E4              Rx   d 8 60 FA 9B FF F2 8E FF F2
 263.7365 3  C0              Rx   d 2 F8 FF
 263.7370 3  2A7             Rx   d 5 35 F3 FE FF 14
 263.7392 3  18D             Rx   d 7 FB 47 0A 00 08 00 7E
 263.7397 2  302             Rx   d 7 FF FB AB 7E F1 FF FF
 263.7397 3  302             Rx   d 7 91 FB AB 7E F1 FF FF
 263.7407 3  137             Rx   d 2 FD BD
 263.7410 3  A5              Rx   d 8 44 F3 FD D7 7F 2C 0C F1
 263.7413 2  A5              Rx   d 8 44 F3 FD D7 7F 2C 0C F1
 263.7437 2  257             Rx   d 8 28 0D FF FF FF FF FF FF
 263.7440 2  199             Rx   d 6 FF FA 76 7F FF AF
 263.7441 3  199             Rx   d 6 1D FA 76 7F 1D A0
 263.7442 2  19A             Rx   d 6 FF FA 68 7E FF 2F
 263.7443 3  19A             Rx   d 6 51 FA 68 7E 00 20
 263.7445 2  E4              Rx   d 8 3D FB 9B FF F2 8E FF F2
 263.7445 3  12F             Rx   d 8 99 79 8A DD F1 05 30 86
 263.7447 2  19F             Rx   d 6 FF FA 02 80 00 20
 263.7448 3  19B             Rx   d 8 F2 48 40 55 FD FF FF FF
 263.7450 3  D9              Rx   d 8 4A 13 00 10 00 E0 7F C0
 263.7451 2  19B             Rx   d 8 F2 48 40 55 FD FF FF FF
 263.7453 3  F3              Rx   d 8 84 E3 04 C0 F0 FF FF FF
 263.7454 2  D9              Rx   d 8 4A 13 00 10 00 E0 7F C0
 263.7454 3  DC              Rx   d 6 AA 13 22 D0 07 FE
 263.7457 3  19F             Rx   d 6 51 FA 02 80 00 20
 263.7458 3  397             Rx   d 3 D2 D8 4B
 263.7459 2  12F             Rx   d 8 17 7E 8A DD F1 05 30 86
 263.7469 1  12F             Rx   d 8 17 7E 8A DD F1 05 30 86
 263.7471 3  2C5             Rx   d 7 F9 F3 00 30 C6 70 C8
 263.7491 3  EF              Rx   d 8 C2 F2 00 7D 21 00 7D FF
 263.7494 2  1C4             Rx   d 7 00 00 00 00 B6 20 F2
 263.7495 3  1A1             Rx   d 5 DA CD 00 00 81
 263.7496 2  1A1             Rx   d 5 DA CD 00 00 81
 263.7498 2  1C5             Rx   d 7 00 00 00 00 B6 20 F2
 263.7499 3  254             Rx   d 8 FF 7F FF 7F FF 7F FF 7F
 263.7513 3  137             Rx   d 2 FD BD
 263.7517 3  197             Rx   d 4 83 0C 0E C0
 263.7543 2  E4              Rx   d 8 B3 FC 9B FF F2 8E FF F2
 263.7546 3  2C4             Rx   d 8 9C 08 FF 64 72 64 01 F1
 263.7547 3  281             Rx   d 2 2F F3
 263.7554 1  281             Rx   d 2 2F F3
 263.7592 3  18D             Rx   d 7 FC 47 0A FF 07 00 7E
 263.7597 2  163             Rx   d 8 FF FF E5 24 FF FF FF FF
 263.7597 3  163             Rx   d 8 1F FD E5 24 E5 24 00 F0
 263.7599 2  302             Rx   d 7 FF FD AB 7E F1 FF FF
 263.7607 3  137             Rx   d 2 FD BD
 263.7609 3  A5              Rx   d 8 36 F4 FD C7 7F 30 0C F1
 263.7611 3  8F              Rx   d 8 D5 1D FA 7C 52 00 15 10
 263.7613 2  A5              Rx   d 8 36 F4 FD C7 7F 30 0C F1
 263.7627 3  96              Rx   d 8 51 00 36 C7 01 FF FF FF
 263.7630 2  96              Rx   d 8 51 00 36 C7 01 FF FF FF
 263.7641 2  199             Rx   d 6 FF FC 59 7F FF AF
 263.7641 3  199             Rx   d 6 5E FC 59 7F 1D A0
 263.7643 2  19A             Rx   d 6 FF FC 7A 7E FF 2F
 263.7643 3  19A             Rx   d 6 32 FC 7A 7E 00 20
 263.7645 2  E4              Rx   d 8 EE FD 9B FF F2 8E FF F2
 263.7645 3  19F             Rx   d 6 E3 FC 07 80 00 20
 263.7647 2  19F             Rx   d 6 FF FC 07 80 00 20
 263.7649 3  3FB             Rx   d 6 B2 9C 01 10 F0 4E
 263.7650 1  19A             Rx   d 6 32 FC 7A 7E 00 20
 263.7653 3  F3              Rx   d 8 0A E4 04 C0 F0 FF FF FF
 263.7655 3  D9              Rx   d 8 C4 14 00 10 00 E0 7F C0
 263.7658 3  DC              Rx   d 6 A1 14 22 D0 07 FE
 263.7659 2  D9              Rx   d 8 C4 14 00 10 00 E0 7F C0
 263.7660 1  19F             Rx   d 6 E3 FC 07 80 00 20
 263.7670 1  3FB             Rx   d 6 B2 9C 01 10 F0 4E
 263.7691 3  EF              Rx   d 8 9F F3 00 7D 21 00 7D FF
 263.7694 2  1C4             Rx   d 7 00 00 00 00 B6 20 F2
 263.7695 3  1A1             Rx   d 5 60 CE 00 00 81
 263.7696 2  1A1             Rx   d 5 60 CE 00 00 81
 263.7698 2  1C5             Rx   d 7 00 00 00 00 B6 20 F2
 263.7698 3  254             Rx   d 8 FF 7F FF 7F FF 7F FF 7F
 263.7705 1  1A1             Rx   d 5 60 CE 00 00 81
 263.7709 3  137             Rx   d 2 FD BD
 263.7723 2  2EB             Rx   d 8 8D F8 12 13 11 51 FF FF
 263.7725 1  F6              Rx   d 2 F3 F3
 263.7743 2  E4              Rx   d 8 09 FE 9B FF F2 8E FF F2
 263.7759 3  3FD             Rx   d 5 78 06 20 FC FF
 263.7760 2  2BB             Rx   d 5 49 F3 00 00 F2
 263.7760 3  2BB             Rx   d 5 49 F3 00 00 F2
 263.7763 3  289             Rx   d 8 D6 F3 E0 E0 E1 00 EC 01
 263.7768 1  2BB             Rx   d 5 49 F3 00 00 F2
 263.7770 3  36E             Rx   d 5 D5 F9 FE FF 15
 263.7782 1  246             Rx   d 5 3F F3 64 FF FF
 263.7785 2  246             Rx   d 5 3F F3 64 FF FF
 263.7785 3  246             Rx   d 5 3F F3 64 FF FF
 263.7792 3  18D             Rx   d 7 FC 47 0A FE 07 00 7E
 263.7797 2  302             Rx   d 7 FF F0 AB 7E F1 FF FF
 263.7797 3  302             Rx   d 7 51 F0 AB 7E F1 FF FF
 263.7807 3  137             Rx   d 2 FD BD
 263.7809 3  A5              Rx   d 8 98 F5 FC B7 7F 36 0C F1
 263.7811 2  1A0             Rx   d 8 00 80 0C 60 FF 00 F0 FF
 263.7811 3  2E0             Rx   d 6 DC F3 46 30 24 FF
 263.7814 2  A5              Rx   d 8 98 F5 FC B7 7F 36 0C F1
 263.7817 3  197             Rx   d 4 0C 0D 0E C0
 263.7818 3  2A5             Rx   d 2 FF FF
 263.7821 3  5B0             Rx   d 8 15 02 F0 FF FF FF FF FF
 263.7825 1  A5              Rx   d 8 98 F5 FC B7 7F 36 0C F1
 263.7841 2  199             Rx   d 6 FF FE 91 7F FF AF
 263.7841 3  199             Rx   d 6 B7 FE 91 7F 1D A0
 263.7843 2  19A             Rx   d 6 FF FE 71 7E FF 2F
 263.7843 3  19A             Rx   d 6 C0 FE 71 7E 00 20
 263.7845 2  E4              Rx   d 8 08 F0 9B FF F2 8E FF F2
 263.7845 3  19F             Rx   d 6 D1 FE FC 7F 00 20
 263.7847 2  19F             Rx   d 6 FF FE FC 7F 00 20
 263.7847 3  297             Rx   d 7 4B E5 F0 E0 F0 F0 FC
 263.7849 2  349             Rx   d 5 FE 01 F4 01 00
 263.7850 3  D9              Rx   d 8 99 15 00 10 00 E0 7F C0
 263.7851 2  297             Rx   d 7 4B E5 F0 E0 F0 F0 FC
 263.7852 3  F3              Rx   d 8 57 E5 04 C0 F0 FF FF FF
 263.7854 2  D9              Rx   d 8 99 15 00 10 00 E0 7F C0
 263.7854 3  DC              Rx   d 6 CB 15 22 D0 07 FE
 263.7856 2  2E5             Rx   d 8 83 F8 11 13 11 1F 10 11
 263.7856 3  349             Rx   d 5 FE 01 F4 01 00
 263.7861 1  297             Rx   d 7 4B E5 F0 E0 F0 F0 FC
 263.7872 3  1B3             Rx   d 8 FF 0F 00 F3 04 FF 80 3C
 263.7876 2  1B3             Rx   d 8 FF 0F 00 F3 04 FF 80 3C
 263.7891 3  EF              Rx   d 8 11 F4 00 7D 21 00 7D FF
 263.7894 2  1C4             Rx   d 7 00 00 00 00 B7 20 F2
 263.7896 2  1A1             Rx   d 5 95 C0 00 00 81
 263.7896 3  1A1             Rx   d 5 95 C0 00 00 81
 263.7898 2  1C5             Rx   d 7 00 00 00 00 B7 20 F2
 263.7899 3  173             Rx   d 8 F4 F8 00 02 20 00 F2 C0
 263.7900 2  173             Rx   d 8 F4 F8 00 02 20 00 F2 C0
 263.7901 3  254             Rx   d 8 FF 7F FF 7F FF 7F FF 7F
 263.7908 3  137             Rx   d 2 FD BD
 263.7908 1  173             Rx   d 8 F4 F8 00 02 20 00 F2 C0
 263.7913 3  8F              Rx   d 8 32 1E FA 7C 52 00 15 10
 263.7918 3  96              Rx   d 8 51 00 36 C7 01 FF FF FF
 263.7921 2  96              Rx   d 8 51 00 36 C7 01 FF FF FF
 263.7937 2  257             Rx   d 8 CF 0E FF FF FF FF FF FF
 263.7943 2  E4              Rx   d 8 55 F1 9B FF F2 8E FF F2
 263.7992 3  18D             Rx   d 7 FC 47 0A FE 07 00 7E
 263.7996 2  302             Rx   d 7 FF F2 AB 7E F1 FF FF
 263.8007 3  137             Rx   d 2 FD BD
 263.8010 3  A5              Rx   d 8 03 F6 FB C7 7F 34 0C F1
 263.8013 2  A5              Rx   d 8 03 F6 FB C7 7F 34 0C F1
 263.8022 3  2FC             Rx   d 7 81 01 00 FF FF FF FF
 263.8027 2  2FC             Rx   d 7 81 01 00 FF FF FF FF
 263.8036 1  2FC             Rx   d 7 81 01 00 FF FF FF FF
 263.8038 2  199             Rx   d 6 FF F1 6D 7F FF AF
 263.8040 3  199             Rx   d 6 D7 F1 6D 7F 1D A0
 263.8040 2  19A             Rx   d 6 FF F1 69 7E FF 2F
 263.8042 3  19A             Rx   d 6 05 F1 69 7E 00 20
 263.8042 2  19F             Rx   d 6 FF F1 EE 7F 00 20
 263.8044 3  19F             Rx   d 6 AF F1 EE 7F 00 20
 263.8045 2  E4              Rx   d 8 B2 F2 9B FF F2 8E FF F2
 263.8053 3  F3              Rx   d 8 B0 E6 04 C0 F0 FF FF FF
 263.8055 3  D9              Rx   d 8 7E 16 00 10 00 E0 7F C0
 263.8057 3  397             Rx   d 3 D2 D8 4A
 263.8059 2  D9              Rx   d 8 7E 16 00 10 00 E0 7F C0
 263.8059 3  DC              Rx   d 6 75 16 22 D0 07 FE
 263.8061 2  1A6             Rx   d 8 00 00 00 00 00 00 30 F7
 263.8080 1  2BF             Rx   d 3 FF FF FF
 263.8091 3  EF              Rx   d 8 4C F5 00 7D 21 00 7D FF
 263.8094 2  1C4             Rx   d 7 00 00 00 00 B7 20 F2
 263.8096 2  1A1             Rx   d 5 08 C1 00 00 81
 263.8096 3  1A1             Rx   d 5 08 C1 00 00 81
 263.8098 2  1C5             Rx   d 7 00 00 00 00 B7 20 F2
 263.8098 3  254             Rx   d 8 FF 7F FF 7F FF 7F FF 7F
 263.8107 3  137             Rx   d 2 FD BD
 263.8117 3  197             Rx   d 4 80 0E 0E C0
 263.8140 3  55E             Rx   d 8 00 00 00 00 01 00 00 5E
 263.8142 2  E4              Rx   d 8 EF F3 9B FF F2 8E FF F2
 263.8161 2  130             Rx   d 5 05 F0 FC FF FF
 263.8170 3  2A7             Rx   d 5 C1 F4 FE FF 14
 263.8192 3  18D             Rx   d 7 FB 47 0A FE 07 00 7E
 263.8196 2  302             Rx   d 7 FF F4 AB 7E F1 FF FF
 263.8196 3  302             Rx   d 7 54 F4 AB 7E F1 FF FF
 263.8207 3  137             Rx   d 2 FD BD
 263.8209 3  A5              Rx   d 8 97 F7 FC C7 7F 30 0C F1
 263.8212 3  8F              Rx   d 8 33 10 FA 7C 52 00 15 10
 263.8213 2  A5              Rx   d 8 97 F7 FC C7 7F 30 0C F1
 263.8218 3  96              Rx   d 8 51 00 36 C7 01 FF FF FF
 263.8222 2  96              Rx   d 8 51 00 36 C7 01 FF FF FF
 263.8238 2  199             Rx   d 6 FF F3 6F 7F FF AF
 263.8238 3  199             Rx   d 6 24 F3 6F 7F 1D A0
 263.8240 2  19A             Rx   d 6 FF F3 77 7E FF 2F
 263.8240 3  19A             Rx   d 6 01 F3 77 7E 00 20
 263.8242 2  19F             Rx   d 6 FF F3 04 80 00 20
 263.8243 3  19F             Rx   d 6 25 F3 04 80 00 20
 263.8244 2  E4              Rx   d 8 61 F4 9B FF F2 8E FF F2
 263.8248 3  F3              Rx   d 8 ED E7 04 C0 F0 FF FF FF
 263.8251 3  D9              Rx   d 8 23 17 00 10 00 E0 7F C0
 263.8253 3  DC              Rx   d 6 1F 17 22 D0 07 FE
 263.8254 2  D9              Rx   d 8 23 17 00 10 00 E0 7F C0
 263.8291 3  EF              Rx   d 8 AB F6 00 7D 21 00 7D FF
 263.8294 2  1C4             Rx   d 7 00 00 00 00 B7 20 F2
 263.8296 3  1A1             Rx   d 5 B2 C2 00 00 81
 263.8296 2  1C5             Rx   d 7 00 00 00 00 B7 20 F2
 263.8298 2  1A1             Rx   d 5 B2 C2 00 00 81
 263.8299 3  254             Rx   d 8 FF 7F FF 7F FF 7F FF 7F
 263.8307 3  137             Rx   d 2 FD BC
 263.8341 2  E4              Rx   d 8 3C F5 9B FF F2 8E FF F2
 263.8392 3  18D             Rx   d 7 FC 47 0A FF 07 00 7E
 263.8396 2  302             Rx   d 7 FF F6 AB 7E F1 FF FF
 263.8408 3  137             Rx   d 2 FD BC
 263.8410 3  A5              Rx   d 8 C8 F8 FC C7 7F 32 0C F1
 263.8413 2  A5              Rx   d 8 C8 F8 FC C7 7F 32 0C F1
 263.8417 3  197             Rx   d 4 89 00 0E C0
 263.8426 3  314             Rx   d 3 FF 3F FF
 263.8435 1  314             Rx   d 3 FF 3F FF
 263.8436 2  257             Rx   d 8 CE 00 FF FF FF FF FF FF
 263.8438 2  199             Rx   d 6 FF F5 4A 7F FF AF
 263.8438 3  199             Rx   d 6 DC F5 4A 7F 1D A0
 263.8440 2  19A             Rx   d 6 FF F5 65 7E FF 2F
 263.8440 3  19A             Rx   d 6 62 F5 65 7E 00 20
 263.8442 2  19F             Rx   d 6 FF F5 F8 7F 00 20
 263.8443 3  19F             Rx   d 6 56 F5 F8 7F 00 20
 263.8444 2  E4              Rx   d 8 DB F6 9B FF F2 8E FF F2
 263.8445 3  12F             Rx   d 8 7E 7A 8A DD F1 05 30 86
 263.8453 3  F3              Rx   d 8 B1 E8 04 C0 F0 FF FF FF
 263.8456 3  D9              Rx   d 8 7F 18 00 10 00 E0 7F C0
 263.8458 3  DC              Rx   d 6 63 18 22 D0 07 FE
 263.8458 2  12F             Rx   d 8 16 70 8A DD F1 05 30 86
 263.8461 2  D9              Rx   d 8 7F 18 00 10 00 E0 7F C0
 263.8468 1  12F             Rx   d 8 16 70 8A DD F1 05 30 86
 263.8471 3  2C5             Rx   d 7 36 F4 00 30 C6 70 C8
 263.8491 3  EF              Rx   d 8 F6 F7 00 7D 21 00 7D FF
 263.8494 2  1C4             Rx   d 7 00 00 00 00 B7 20 F2
 263.8496 3  1A1             Rx   d 5 2F C3 00 00 81
 263.8496 2  1C5             Rx   d 7 00 00 00 00 B7 20 F2
 263.8498 2  1A1             Rx   d 5 2F C3 00 00 81
 263.8499 3  254             Rx   d 8 FF 7F FF 7F FF 7F FF 7F
 263.8507 3  137             Rx   d 2 FD BC
 263.8510 3  8F              Rx   d 8 6E 11 FA 7C 52 00 15 10
 263.8517 3  96              Rx   d 8 51 00 36 C7 01 FF FF FF
 263.8521 2  96              Rx   d 8 51 00 36 C7 01 FF FF FF
